
Note-[RT_BS] Larger stack needed
  Note: Bumping stack limit from 8192 to 8250 Kbytes.

Chronologic VCS simulator copyright 1991-2016
Contains Synopsys proprietary information.
Compiler version L-2016.06_Full64; Runtime version L-2016.06_Full64;  Oct  4 22:26 2026
UVM_INFO /usr/synopsys/vcs-L-2016.06//etc/uvm-1.2/base/uvm_root.svh(402) @ 0: reporter [UVM/RELNOTES] 
----------------------------------------------------------------
UVM-1.2.Synopsys
(C) 2007-2014 Mentor Graphics Corporation
(C) 2007-2014 Cadence Design Systems, Inc.
(C) 2006-2014 Synopsys, Inc.
(C) 2011-2013 Cypress Semiconductor Corp.
(C) 2013-2014 NVIDIA Corporation
----------------------------------------------------------------

  ***********       IMPORTANT RELEASE NOTES         ************

  You are using a version of the UVM library that has been compiled
  with `UVM_NO_DEPRECATED undefined.
  See http://www.eda.org/svdb/view.php?id=3313 for more details.

  You are using a version of the UVM library that has been compiled
  with `UVM_OBJECT_DO_NOT_NEED_CONSTRUCTOR undefined.
  See http://www.eda.org/svdb/view.php?id=3770 for more details.

      (Specify +UVM_NO_RELNOTES to turn off this notice)


 VCS Coverage Metrics Release L-2016.06_Full64 Copyright (c) 1991-2016 by Synopsys Inc.
UVM_INFO ../tb/testbench.sv(79) @ 0: reporter [Testbench] Enter
VCD+ Writer L-2016.06_Full64 Copyright (c) 1991-2016 by Synopsys Inc.
UVM_INFO @ 0: reporter [RNTST] Running test apb_random_addr_wr_test...
UVM_INFO ../tb/test.sv(16) @ 0: uvm_test_top [apb_random_addr_wr_test] -------TEST BUILD PHASE------------

Note-[FCICIO] Instance coverage is ON
/root/Downloads/apb_kaneez/sim/../tb/apb_coverege.sv, 15
$unit, "apb_coverage::apb_cg"
  Instance coverage is set (option.per_instance = 1) for covergroup 
  'apb_coverage::apb_cg'
  
  Covergroup Instance: tbench_top.me.obj.apb_cg 
  Design hierarchy: $unit

UVM_INFO ../tb/apb_environment.sv(24) @ 0: uvm_test_top.env1 [Environment] Test buil Phase Executed In build Phase
UVM_INFO ../tb/apb_agent.sv(21) @ 0: uvm_test_top.env1.agt [agent] Test build Phase Executed In agent
UVM_INFO ../tb/apb_driver.sv(20) @ 0: uvm_test_top.env1.agt.driver1 [Driver]  Build Phase Executed In Driver
UVM_INFO ../tb/apb_monitor.sv(30) @ 0: uvm_test_top.env1.agt.monitor [MONITOR] Build phase executed
UVM_INFO ../tb/apb_scoreboard.sv(103) @ 0: uvm_test_top.env1.scb [SCOREBOARD] Build phase executed
-----------------------------------------------------------------
Name                         Type                     Size  Value
-----------------------------------------------------------------
uvm_test_top                 apb_random_addr_wr_test  -     @343 
  env1                       apb_environment          -     @356 
    agt                      apb_agent                -     @373 
      driver1                apb_driver               -     @432 
        rsp_port             uvm_analysis_port        -     @451 
        seq_item_port        uvm_seq_item_pull_port   -     @441 
      monitor                apb_monitor              -     @413 
        item_collected_port  uvm_analysis_port        -     @422 
      seq1                   apb_sequencer            -     @461 
        rsp_export           uvm_analysis_export      -     @470 
        seq_item_export      uvm_seq_item_pull_imp    -     @588 
        arbitration_queue    array                    0     -    
        lock_queue           array                    0     -    
        num_last_reqs        integral                 32    'd1  
        num_last_rsps        integral                 32    'd1  
    cov                      apb_coverage             -     @391 
      analysis_imp           uvm_analysis_imp         -     @400 
    scb                      apb_scoreboard           -     @382 
      item_collected_export  uvm_analysis_imp         -     @611 
-----------------------------------------------------------------
UVM_INFO ../tb/apb_monitor.sv(134) @ 55: uvm_test_top.env1.agt.monitor [APB_MONITOR] TRANSFER: ADDR=0x0000c190 WRITE=1 WDATA=0x250fe8c6e2598559 RDATA=0x0000000000000000 STRB=0xff PSLVERR=0
UVM_INFO ../tb/apb_scoreboard.sv(501) @ 55: uvm_test_top.env1.scb [APB_SCB_WRITE] WRITE OK: ADDR=0x0000c190 IDX=6194 DATA=0x250fe8c6e2598559 STRB=0xff MODEL=0x250fe8c6e2598559 VALID_BYTES=0xff
UVM_INFO ../tb/apb_monitor.sv(134) @ 95: uvm_test_top.env1.agt.monitor [APB_MONITOR] TRANSFER: ADDR=0x0000c190 WRITE=0 WDATA=0x0000000000000000 RDATA=0x250fe8c6e2598559 STRB=0x00 PSLVERR=0
UVM_INFO ../tb/apb_scoreboard.sv(587) @ 95: uvm_test_top.env1.scb [APB_SCB_READ] READ MATCH: ADDR=0x0000c190 IDX=6194 EXPECTED=0x250fe8c6e2598559 ACTUAL=0x250fe8c6e2598559 VALID_BYTES=0xff
UVM_INFO ../tb/apb_monitor.sv(134) @ 135: uvm_test_top.env1.agt.monitor [APB_MONITOR] TRANSFER: ADDR=0x0000e920 WRITE=1 WDATA=0xc57a6ffaafbe95b0 RDATA=0x0000000000000000 STRB=0xff PSLVERR=0
UVM_INFO ../tb/apb_scoreboard.sv(501) @ 135: uvm_test_top.env1.scb [APB_SCB_WRITE] WRITE OK: ADDR=0x0000e920 IDX=7460 DATA=0xc57a6ffaafbe95b0 STRB=0xff MODEL=0xc57a6ffaafbe95b0 VALID_BYTES=0xff
UVM_INFO ../tb/apb_monitor.sv(134) @ 175: uvm_test_top.env1.agt.monitor [APB_MONITOR] TRANSFER: ADDR=0x0000e920 WRITE=0 WDATA=0x0000000000000000 RDATA=0xc57a6ffaafbe95b0 STRB=0x00 PSLVERR=0
UVM_INFO ../tb/apb_scoreboard.sv(587) @ 175: uvm_test_top.env1.scb [APB_SCB_READ] READ MATCH: ADDR=0x0000e920 IDX=7460 EXPECTED=0xc57a6ffaafbe95b0 ACTUAL=0xc57a6ffaafbe95b0 VALID_BYTES=0xff
UVM_INFO ../tb/apb_monitor.sv(134) @ 215: uvm_test_top.env1.agt.monitor [APB_MONITOR] TRANSFER: ADDR=0x00002ae0 WRITE=1 WDATA=0x9b246051e51a440e RDATA=0x0000000000000000 STRB=0xff PSLVERR=0
UVM_INFO ../tb/apb_scoreboard.sv(501) @ 215: uvm_test_top.env1.scb [APB_SCB_WRITE] WRITE OK: ADDR=0x00002ae0 IDX=1372 DATA=0x9b246051e51a440e STRB=0xff MODEL=0x9b246051e51a440e VALID_BYTES=0xff
UVM_INFO ../tb/apb_monitor.sv(134) @ 255: uvm_test_top.env1.agt.monitor [APB_MONITOR] TRANSFER: ADDR=0x00002ae0 WRITE=0 WDATA=0x0000000000000000 RDATA=0x9b246051e51a440e STRB=0x00 PSLVERR=0
UVM_INFO ../tb/apb_scoreboard.sv(587) @ 255: uvm_test_top.env1.scb [APB_SCB_READ] READ MATCH: ADDR=0x00002ae0 IDX=1372 EXPECTED=0x9b246051e51a440e ACTUAL=0x9b246051e51a440e VALID_BYTES=0xff
UVM_INFO ../tb/apb_monitor.sv(134) @ 295: uvm_test_top.env1.agt.monitor [APB_MONITOR] TRANSFER: ADDR=0x000050c0 WRITE=1 WDATA=0x1385c437f198d24b RDATA=0x0000000000000000 STRB=0xff PSLVERR=0
UVM_INFO ../tb/apb_scoreboard.sv(501) @ 295: uvm_test_top.env1.scb [APB_SCB_WRITE] WRITE OK: ADDR=0x000050c0 IDX=2584 DATA=0x1385c437f198d24b STRB=0xff MODEL=0x1385c437f198d24b VALID_BYTES=0xff
UVM_INFO ../tb/apb_monitor.sv(134) @ 335: uvm_test_top.env1.agt.monitor [APB_MONITOR] TRANSFER: ADDR=0x000050c0 WRITE=0 WDATA=0x0000000000000000 RDATA=0x1385c437f198d24b STRB=0x00 PSLVERR=0
UVM_INFO ../tb/apb_scoreboard.sv(587) @ 335: uvm_test_top.env1.scb [APB_SCB_READ] READ MATCH: ADDR=0x000050c0 IDX=2584 EXPECTED=0x1385c437f198d24b ACTUAL=0x1385c437f198d24b VALID_BYTES=0xff
UVM_INFO ../tb/apb_monitor.sv(134) @ 375: uvm_test_top.env1.agt.monitor [APB_MONITOR] TRANSFER: ADDR=0x000061b8 WRITE=1 WDATA=0xc4aff59bcef884c6 RDATA=0x0000000000000000 STRB=0xff PSLVERR=0
UVM_INFO ../tb/apb_scoreboard.sv(501) @ 375: uvm_test_top.env1.scb [APB_SCB_WRITE] WRITE OK: ADDR=0x000061b8 IDX=3127 DATA=0xc4aff59bcef884c6 STRB=0xff MODEL=0xc4aff59bcef884c6 VALID_BYTES=0xff
UVM_INFO ../tb/apb_monitor.sv(134) @ 415: uvm_test_top.env1.agt.monitor [APB_MONITOR] TRANSFER: ADDR=0x000061b8 WRITE=0 WDATA=0x0000000000000000 RDATA=0xc4aff59bcef884c6 STRB=0x00 PSLVERR=0
UVM_INFO ../tb/apb_scoreboard.sv(587) @ 415: uvm_test_top.env1.scb [APB_SCB_READ] READ MATCH: ADDR=0x000061b8 IDX=3127 EXPECTED=0xc4aff59bcef884c6 ACTUAL=0xc4aff59bcef884c6 VALID_BYTES=0xff
UVM_INFO ../tb/apb_monitor.sv(134) @ 455: uvm_test_top.env1.agt.monitor [APB_MONITOR] TRANSFER: ADDR=0x00002a08 WRITE=1 WDATA=0xcbc5093c0257c298 RDATA=0x0000000000000000 STRB=0xff PSLVERR=0
UVM_INFO ../tb/apb_scoreboard.sv(501) @ 455: uvm_test_top.env1.scb [APB_SCB_WRITE] WRITE OK: ADDR=0x00002a08 IDX=1345 DATA=0xcbc5093c0257c298 STRB=0xff MODEL=0xcbc5093c0257c298 VALID_BYTES=0xff
UVM_INFO ../tb/apb_monitor.sv(134) @ 495: uvm_test_top.env1.agt.monitor [APB_MONITOR] TRANSFER: ADDR=0x00002a08 WRITE=0 WDATA=0x0000000000000000 RDATA=0xcbc5093c0257c298 STRB=0x00 PSLVERR=0
UVM_INFO ../tb/apb_scoreboard.sv(587) @ 495: uvm_test_top.env1.scb [APB_SCB_READ] READ MATCH: ADDR=0x00002a08 IDX=1345 EXPECTED=0xcbc5093c0257c298 ACTUAL=0xcbc5093c0257c298 VALID_BYTES=0xff
UVM_INFO ../tb/apb_monitor.sv(134) @ 535: uvm_test_top.env1.agt.monitor [APB_MONITOR] TRANSFER: ADDR=0x00005cf0 WRITE=1 WDATA=0xc34b6dcdded2bc7d RDATA=0x0000000000000000 STRB=0xff PSLVERR=0
UVM_INFO ../tb/apb_scoreboard.sv(501) @ 535: uvm_test_top.env1.scb [APB_SCB_WRITE] WRITE OK: ADDR=0x00005cf0 IDX=2974 DATA=0xc34b6dcdded2bc7d STRB=0xff MODEL=0xc34b6dcdded2bc7d VALID_BYTES=0xff
UVM_INFO ../tb/apb_monitor.sv(134) @ 575: uvm_test_top.env1.agt.monitor [APB_MONITOR] TRANSFER: ADDR=0x00005cf0 WRITE=0 WDATA=0x0000000000000000 RDATA=0xc34b6dcdded2bc7d STRB=0x00 PSLVERR=0
UVM_INFO ../tb/apb_scoreboard.sv(587) @ 575: uvm_test_top.env1.scb [APB_SCB_READ] READ MATCH: ADDR=0x00005cf0 IDX=2974 EXPECTED=0xc34b6dcdded2bc7d ACTUAL=0xc34b6dcdded2bc7d VALID_BYTES=0xff
UVM_INFO ../tb/apb_monitor.sv(134) @ 615: uvm_test_top.env1.agt.monitor [APB_MONITOR] TRANSFER: ADDR=0x0000b4e0 WRITE=1 WDATA=0xa4d2e7e8a27a2bd9 RDATA=0x0000000000000000 STRB=0xff PSLVERR=0
UVM_INFO ../tb/apb_scoreboard.sv(501) @ 615: uvm_test_top.env1.scb [APB_SCB_WRITE] WRITE OK: ADDR=0x0000b4e0 IDX=5788 DATA=0xa4d2e7e8a27a2bd9 STRB=0xff MODEL=0xa4d2e7e8a27a2bd9 VALID_BYTES=0xff
UVM_INFO ../tb/apb_monitor.sv(134) @ 655: uvm_test_top.env1.agt.monitor [APB_MONITOR] TRANSFER: ADDR=0x0000b4e0 WRITE=0 WDATA=0x0000000000000000 RDATA=0xa4d2e7e8a27a2bd9 STRB=0x00 PSLVERR=0
UVM_INFO ../tb/apb_scoreboard.sv(587) @ 655: uvm_test_top.env1.scb [APB_SCB_READ] READ MATCH: ADDR=0x0000b4e0 IDX=5788 EXPECTED=0xa4d2e7e8a27a2bd9 ACTUAL=0xa4d2e7e8a27a2bd9 VALID_BYTES=0xff
UVM_INFO ../tb/apb_monitor.sv(134) @ 695: uvm_test_top.env1.agt.monitor [APB_MONITOR] TRANSFER: ADDR=0x000018c8 WRITE=1 WDATA=0x3dc3cf9cf7522cdd RDATA=0x0000000000000000 STRB=0xff PSLVERR=0
UVM_INFO ../tb/apb_scoreboard.sv(501) @ 695: uvm_test_top.env1.scb [APB_SCB_WRITE] WRITE OK: ADDR=0x000018c8 IDX=793 DATA=0x3dc3cf9cf7522cdd STRB=0xff MODEL=0x3dc3cf9cf7522cdd VALID_BYTES=0xff
UVM_INFO ../tb/apb_monitor.sv(134) @ 735: uvm_test_top.env1.agt.monitor [APB_MONITOR] TRANSFER: ADDR=0x000018c8 WRITE=0 WDATA=0x0000000000000000 RDATA=0x3dc3cf9cf7522cdd STRB=0x00 PSLVERR=0
UVM_INFO ../tb/apb_scoreboard.sv(587) @ 735: uvm_test_top.env1.scb [APB_SCB_READ] READ MATCH: ADDR=0x000018c8 IDX=793 EXPECTED=0x3dc3cf9cf7522cdd ACTUAL=0x3dc3cf9cf7522cdd VALID_BYTES=0xff
UVM_INFO ../tb/apb_monitor.sv(134) @ 775: uvm_test_top.env1.agt.monitor [APB_MONITOR] TRANSFER: ADDR=0x00000680 WRITE=1 WDATA=0xb17a9097419e0fce RDATA=0x0000000000000000 STRB=0xff PSLVERR=0
UVM_INFO ../tb/apb_scoreboard.sv(501) @ 775: uvm_test_top.env1.scb [APB_SCB_WRITE] WRITE OK: ADDR=0x00000680 IDX=208 DATA=0xb17a9097419e0fce STRB=0xff MODEL=0xb17a9097419e0fce VALID_BYTES=0xff
UVM_INFO ../tb/apb_monitor.sv(134) @ 815: uvm_test_top.env1.agt.monitor [APB_MONITOR] TRANSFER: ADDR=0x00000680 WRITE=0 WDATA=0x0000000000000000 RDATA=0xb17a9097419e0fce STRB=0x00 PSLVERR=0
UVM_INFO ../tb/apb_scoreboard.sv(587) @ 815: uvm_test_top.env1.scb [APB_SCB_READ] READ MATCH: ADDR=0x00000680 IDX=208 EXPECTED=0xb17a9097419e0fce ACTUAL=0xb17a9097419e0fce VALID_BYTES=0xff
UVM_INFO ../tb/apb_monitor.sv(134) @ 855: uvm_test_top.env1.agt.monitor [APB_MONITOR] TRANSFER: ADDR=0x00006468 WRITE=1 WDATA=0x49da8b2df49b0f03 RDATA=0x0000000000000000 STRB=0xff PSLVERR=0
UVM_INFO ../tb/apb_scoreboard.sv(501) @ 855: uvm_test_top.env1.scb [APB_SCB_WRITE] WRITE OK: ADDR=0x00006468 IDX=3213 DATA=0x49da8b2df49b0f03 STRB=0xff MODEL=0x49da8b2df49b0f03 VALID_BYTES=0xff
UVM_INFO ../tb/apb_monitor.sv(134) @ 895: uvm_test_top.env1.agt.monitor [APB_MONITOR] TRANSFER: ADDR=0x00006468 WRITE=0 WDATA=0x0000000000000000 RDATA=0x49da8b2df49b0f03 STRB=0x00 PSLVERR=0
UVM_INFO ../tb/apb_scoreboard.sv(587) @ 895: uvm_test_top.env1.scb [APB_SCB_READ] READ MATCH: ADDR=0x00006468 IDX=3213 EXPECTED=0x49da8b2df49b0f03 ACTUAL=0x49da8b2df49b0f03 VALID_BYTES=0xff
UVM_INFO ../tb/apb_monitor.sv(134) @ 935: uvm_test_top.env1.agt.monitor [APB_MONITOR] TRANSFER: ADDR=0x00007ac8 WRITE=1 WDATA=0x35bf2f6dfa3248f9 RDATA=0x0000000000000000 STRB=0xff PSLVERR=0
UVM_INFO ../tb/apb_scoreboard.sv(501) @ 935: uvm_test_top.env1.scb [APB_SCB_WRITE] WRITE OK: ADDR=0x00007ac8 IDX=3929 DATA=0x35bf2f6dfa3248f9 STRB=0xff MODEL=0x35bf2f6dfa3248f9 VALID_BYTES=0xff
UVM_INFO ../tb/apb_monitor.sv(134) @ 975: uvm_test_top.env1.agt.monitor [APB_MONITOR] TRANSFER: ADDR=0x00007ac8 WRITE=0 WDATA=0x0000000000000000 RDATA=0x35bf2f6dfa3248f9 STRB=0x00 PSLVERR=0
UVM_INFO ../tb/apb_scoreboard.sv(587) @ 975: uvm_test_top.env1.scb [APB_SCB_READ] READ MATCH: ADDR=0x00007ac8 IDX=3929 EXPECTED=0x35bf2f6dfa3248f9 ACTUAL=0x35bf2f6dfa3248f9 VALID_BYTES=0xff
UVM_INFO ../tb/apb_monitor.sv(134) @ 1015: uvm_test_top.env1.agt.monitor [APB_MONITOR] TRANSFER: ADDR=0x0000a830 WRITE=1 WDATA=0x2b3e1258312c3004 RDATA=0x0000000000000000 STRB=0xff PSLVERR=0
UVM_INFO ../tb/apb_scoreboard.sv(501) @ 1015: uvm_test_top.env1.scb [APB_SCB_WRITE] WRITE OK: ADDR=0x0000a830 IDX=5382 DATA=0x2b3e1258312c3004 STRB=0xff MODEL=0x2b3e1258312c3004 VALID_BYTES=0xff
UVM_INFO ../tb/apb_monitor.sv(134) @ 1055: uvm_test_top.env1.agt.monitor [APB_MONITOR] TRANSFER: ADDR=0x0000a830 WRITE=0 WDATA=0x0000000000000000 RDATA=0x2b3e1258312c3004 STRB=0x00 PSLVERR=0
UVM_INFO ../tb/apb_scoreboard.sv(587) @ 1055: uvm_test_top.env1.scb [APB_SCB_READ] READ MATCH: ADDR=0x0000a830 IDX=5382 EXPECTED=0x2b3e1258312c3004 ACTUAL=0x2b3e1258312c3004 VALID_BYTES=0xff
UVM_INFO ../tb/apb_monitor.sv(134) @ 1095: uvm_test_top.env1.agt.monitor [APB_MONITOR] TRANSFER: ADDR=0x0000fcc8 WRITE=1 WDATA=0xaf1a1ee5e3becf18 RDATA=0x0000000000000000 STRB=0xff PSLVERR=0
UVM_INFO ../tb/apb_scoreboard.sv(501) @ 1095: uvm_test_top.env1.scb [APB_SCB_WRITE] WRITE OK: ADDR=0x0000fcc8 IDX=8089 DATA=0xaf1a1ee5e3becf18 STRB=0xff MODEL=0xaf1a1ee5e3becf18 VALID_BYTES=0xff
UVM_INFO ../tb/apb_monitor.sv(134) @ 1135: uvm_test_top.env1.agt.monitor [APB_MONITOR] TRANSFER: ADDR=0x0000fcc8 WRITE=0 WDATA=0x0000000000000000 RDATA=0xaf1a1ee5e3becf18 STRB=0x00 PSLVERR=0
UVM_INFO ../tb/apb_scoreboard.sv(587) @ 1135: uvm_test_top.env1.scb [APB_SCB_READ] READ MATCH: ADDR=0x0000fcc8 IDX=8089 EXPECTED=0xaf1a1ee5e3becf18 ACTUAL=0xaf1a1ee5e3becf18 VALID_BYTES=0xff
UVM_INFO ../tb/apb_monitor.sv(134) @ 1175: uvm_test_top.env1.agt.monitor [APB_MONITOR] TRANSFER: ADDR=0x00009f70 WRITE=1 WDATA=0xc1edaedd7c9ba92a RDATA=0x0000000000000000 STRB=0xff PSLVERR=0
UVM_INFO ../tb/apb_scoreboard.sv(501) @ 1175: uvm_test_top.env1.scb [APB_SCB_WRITE] WRITE OK: ADDR=0x00009f70 IDX=5102 DATA=0xc1edaedd7c9ba92a STRB=0xff MODEL=0xc1edaedd7c9ba92a VALID_BYTES=0xff
UVM_INFO ../tb/apb_monitor.sv(134) @ 1215: uvm_test_top.env1.agt.monitor [APB_MONITOR] TRANSFER: ADDR=0x00009f70 WRITE=0 WDATA=0x0000000000000000 RDATA=0xc1edaedd7c9ba92a STRB=0x00 PSLVERR=0
UVM_INFO ../tb/apb_scoreboard.sv(587) @ 1215: uvm_test_top.env1.scb [APB_SCB_READ] READ MATCH: ADDR=0x00009f70 IDX=5102 EXPECTED=0xc1edaedd7c9ba92a ACTUAL=0xc1edaedd7c9ba92a VALID_BYTES=0xff
UVM_INFO ../tb/apb_monitor.sv(134) @ 1255: uvm_test_top.env1.agt.monitor [APB_MONITOR] TRANSFER: ADDR=0x0000f748 WRITE=1 WDATA=0x79284a7ec28a27e6 RDATA=0x0000000000000000 STRB=0xff PSLVERR=0
UVM_INFO ../tb/apb_scoreboard.sv(501) @ 1255: uvm_test_top.env1.scb [APB_SCB_WRITE] WRITE OK: ADDR=0x0000f748 IDX=7913 DATA=0x79284a7ec28a27e6 STRB=0xff MODEL=0x79284a7ec28a27e6 VALID_BYTES=0xff
UVM_INFO ../tb/apb_monitor.sv(134) @ 1295: uvm_test_top.env1.agt.monitor [APB_MONITOR] TRANSFER: ADDR=0x0000f748 WRITE=0 WDATA=0x0000000000000000 RDATA=0x79284a7ec28a27e6 STRB=0x00 PSLVERR=0
UVM_INFO ../tb/apb_scoreboard.sv(587) @ 1295: uvm_test_top.env1.scb [APB_SCB_READ] READ MATCH: ADDR=0x0000f748 IDX=7913 EXPECTED=0x79284a7ec28a27e6 ACTUAL=0x79284a7ec28a27e6 VALID_BYTES=0xff
UVM_INFO ../tb/apb_monitor.sv(134) @ 1335: uvm_test_top.env1.agt.monitor [APB_MONITOR] TRANSFER: ADDR=0x0000f268 WRITE=1 WDATA=0x4d9b584ac01071d2 RDATA=0x0000000000000000 STRB=0xff PSLVERR=0
UVM_INFO ../tb/apb_scoreboard.sv(501) @ 1335: uvm_test_top.env1.scb [APB_SCB_WRITE] WRITE OK: ADDR=0x0000f268 IDX=7757 DATA=0x4d9b584ac01071d2 STRB=0xff MODEL=0x4d9b584ac01071d2 VALID_BYTES=0xff
UVM_INFO ../tb/apb_monitor.sv(134) @ 1375: uvm_test_top.env1.agt.monitor [APB_MONITOR] TRANSFER: ADDR=0x0000f268 WRITE=0 WDATA=0x0000000000000000 RDATA=0x4d9b584ac01071d2 STRB=0x00 PSLVERR=0
UVM_INFO ../tb/apb_scoreboard.sv(587) @ 1375: uvm_test_top.env1.scb [APB_SCB_READ] READ MATCH: ADDR=0x0000f268 IDX=7757 EXPECTED=0x4d9b584ac01071d2 ACTUAL=0x4d9b584ac01071d2 VALID_BYTES=0xff
UVM_INFO ../tb/apb_monitor.sv(134) @ 1415: uvm_test_top.env1.agt.monitor [APB_MONITOR] TRANSFER: ADDR=0x0000edd8 WRITE=1 WDATA=0xcfe7edbf9a7fcebc RDATA=0x0000000000000000 STRB=0xff PSLVERR=0
UVM_INFO ../tb/apb_scoreboard.sv(501) @ 1415: uvm_test_top.env1.scb [APB_SCB_WRITE] WRITE OK: ADDR=0x0000edd8 IDX=7611 DATA=0xcfe7edbf9a7fcebc STRB=0xff MODEL=0xcfe7edbf9a7fcebc VALID_BYTES=0xff
UVM_INFO ../tb/apb_monitor.sv(134) @ 1455: uvm_test_top.env1.agt.monitor [APB_MONITOR] TRANSFER: ADDR=0x0000edd8 WRITE=0 WDATA=0x0000000000000000 RDATA=0xcfe7edbf9a7fcebc STRB=0x00 PSLVERR=0
UVM_INFO ../tb/apb_scoreboard.sv(587) @ 1455: uvm_test_top.env1.scb [APB_SCB_READ] READ MATCH: ADDR=0x0000edd8 IDX=7611 EXPECTED=0xcfe7edbf9a7fcebc ACTUAL=0xcfe7edbf9a7fcebc VALID_BYTES=0xff
UVM_INFO ../tb/apb_monitor.sv(134) @ 1495: uvm_test_top.env1.agt.monitor [APB_MONITOR] TRANSFER: ADDR=0x0000b448 WRITE=1 WDATA=0x61ea4f7c03c1b017 RDATA=0x0000000000000000 STRB=0xff PSLVERR=0
UVM_INFO ../tb/apb_scoreboard.sv(501) @ 1495: uvm_test_top.env1.scb [APB_SCB_WRITE] WRITE OK: ADDR=0x0000b448 IDX=5769 DATA=0x61ea4f7c03c1b017 STRB=0xff MODEL=0x61ea4f7c03c1b017 VALID_BYTES=0xff
UVM_INFO ../tb/apb_monitor.sv(134) @ 1535: uvm_test_top.env1.agt.monitor [APB_MONITOR] TRANSFER: ADDR=0x0000b448 WRITE=0 WDATA=0x0000000000000000 RDATA=0x61ea4f7c03c1b017 STRB=0x00 PSLVERR=0
UVM_INFO ../tb/apb_scoreboard.sv(587) @ 1535: uvm_test_top.env1.scb [APB_SCB_READ] READ MATCH: ADDR=0x0000b448 IDX=5769 EXPECTED=0x61ea4f7c03c1b017 ACTUAL=0x61ea4f7c03c1b017 VALID_BYTES=0xff
UVM_INFO ../tb/apb_monitor.sv(134) @ 1575: uvm_test_top.env1.agt.monitor [APB_MONITOR] TRANSFER: ADDR=0x0000c4a8 WRITE=1 WDATA=0xaf6a464b86ac925d RDATA=0x0000000000000000 STRB=0xff PSLVERR=0
UVM_INFO ../tb/apb_scoreboard.sv(501) @ 1575: uvm_test_top.env1.scb [APB_SCB_WRITE] WRITE OK: ADDR=0x0000c4a8 IDX=6293 DATA=0xaf6a464b86ac925d STRB=0xff MODEL=0xaf6a464b86ac925d VALID_BYTES=0xff
UVM_INFO ../tb/apb_monitor.sv(134) @ 1615: uvm_test_top.env1.agt.monitor [APB_MONITOR] TRANSFER: ADDR=0x0000c4a8 WRITE=0 WDATA=0x0000000000000000 RDATA=0xaf6a464b86ac925d STRB=0x00 PSLVERR=0
UVM_INFO ../tb/apb_scoreboard.sv(587) @ 1615: uvm_test_top.env1.scb [APB_SCB_READ] READ MATCH: ADDR=0x0000c4a8 IDX=6293 EXPECTED=0xaf6a464b86ac925d ACTUAL=0xaf6a464b86ac925d VALID_BYTES=0xff
UVM_INFO /usr/synopsys/vcs-L-2016.06//etc/uvm-1.2/base/uvm_objection.svh(1270) @ 1666: reporter [TEST_DONE] 'run' phase is ready to proceed to the 'extract' phase
UVM_INFO ../tb/apb_coverege.sv(343) @ 1666: uvm_test_top.env1.cov [APB_COVERAGE] Functional Coverage = 35.48%
UVM_INFO ../tb/test.sv(35) @ 1666: uvm_test_top [apb_random_addr_wr_test] ---------------------------------------
UVM_INFO ../tb/test.sv(36) @ 1666: uvm_test_top [apb_random_addr_wr_test] ----           TEST PASS           ----
UVM_INFO ../tb/test.sv(37) @ 1666: uvm_test_top [apb_random_addr_wr_test] ---------------------------------------
UVM_INFO /usr/synopsys/vcs-L-2016.06//etc/uvm-1.2/base/uvm_report_catcher.svh(705) @ 1666: reporter [UVM/REPORT/CATCHER] 
--- UVM Report catcher Summary ---


Number of demoted UVM_FATAL reports  :    0
Number of demoted UVM_ERROR reports  :    0
Number of demoted UVM_WARNING reports:    0
Number of caught UVM_FATAL reports   :    0
Number of caught UVM_ERROR reports   :    0
Number of caught UVM_WARNING reports :    0

UVM_INFO /usr/synopsys/vcs-L-2016.06//etc/uvm-1.2/base/uvm_report_server.svh(894) @ 1666: reporter [UVM/REPORT/SERVER] 
--- UVM Report Summary ---

** Report counts by severity
UVM_INFO :   95
UVM_WARNING :    0
UVM_ERROR :    0
UVM_FATAL :    0
** Report counts by id
[APB_COVERAGE]     1
[APB_MONITOR]    40
[APB_SCB_READ]    20
[APB_SCB_WRITE]    20
[Driver]     1
[Environment]     1
[MONITOR]     1
[RNTST]     1
[SCOREBOARD]     1
[TEST_DONE]     1
[Testbench]     1
[UVM/RELNOTES]     1
[UVM/REPORT/CATCHER]     1
[agent]     1
[apb_random_addr_wr_test]     4

$finish called from file "/usr/synopsys/vcs-L-2016.06//etc/uvm-1.2/base/uvm_root.svh", line 527.
$finish at simulation time                 1666

---------------------------------------------------------------------------
VCS Coverage Metrics: during simulation line, cond, tgl was monitored
---------------------------------------------------------------------------

 Coverage status: End of All Coverages ...

           V C S   S i m u l a t i o n   R e p o r t 
Time: 1666
CPU Time:      0.530 seconds;       Data structure size:   0.5Mb
Sun Oct  4 22:26:19 2026
