
Note-[RT_BS] Larger stack needed
  Note: Bumping stack limit from 8192 to 8250 Kbytes.

Chronologic VCS simulator copyright 1991-2016
Contains Synopsys proprietary information.
Compiler version L-2016.06_Full64; Runtime version L-2016.06_Full64;  Oct  4 22:30 2026
UVM_INFO /usr/synopsys/vcs-L-2016.06//etc/uvm-1.2/base/uvm_root.svh(402) @ 0: reporter [UVM/RELNOTES] 
----------------------------------------------------------------
UVM-1.2.Synopsys
(C) 2007-2014 Mentor Graphics Corporation
(C) 2007-2014 Cadence Design Systems, Inc.
(C) 2006-2014 Synopsys, Inc.
(C) 2011-2013 Cypress Semiconductor Corp.
(C) 2013-2014 NVIDIA Corporation
----------------------------------------------------------------

  ***********       IMPORTANT RELEASE NOTES         ************

  You are using a version of the UVM library that has been compiled
  with `UVM_NO_DEPRECATED undefined.
  See http://www.eda.org/svdb/view.php?id=3313 for more details.

  You are using a version of the UVM library that has been compiled
  with `UVM_OBJECT_DO_NOT_NEED_CONSTRUCTOR undefined.
  See http://www.eda.org/svdb/view.php?id=3770 for more details.

      (Specify +UVM_NO_RELNOTES to turn off this notice)


 VCS Coverage Metrics Release L-2016.06_Full64 Copyright (c) 1991-2016 by Synopsys Inc.
UVM_INFO ../tb/testbench.sv(79) @ 0: reporter [Testbench] Enter
VCD+ Writer L-2016.06_Full64 Copyright (c) 1991-2016 by Synopsys Inc.
UVM_INFO @ 0: reporter [RNTST] Running test apb_random_stress_test...
UVM_INFO ../tb/test.sv(16) @ 0: uvm_test_top [apb_random_stress_test] -------TEST BUILD PHASE------------

Note-[FCICIO] Instance coverage is ON
/root/Downloads/apb_kaneez/sim/../tb/apb_coverege.sv, 15
$unit, "apb_coverage::apb_cg"
  Instance coverage is set (option.per_instance = 1) for covergroup 
  'apb_coverage::apb_cg'
  
  Covergroup Instance: tbench_top.me.obj.apb_cg 
  Design hierarchy: $unit

UVM_INFO ../tb/apb_environment.sv(24) @ 0: uvm_test_top.env1 [Environment] Test buil Phase Executed In build Phase
UVM_INFO ../tb/apb_agent.sv(21) @ 0: uvm_test_top.env1.agt [agent] Test build Phase Executed In agent
UVM_INFO ../tb/apb_driver.sv(20) @ 0: uvm_test_top.env1.agt.driver1 [Driver]  Build Phase Executed In Driver
UVM_INFO ../tb/apb_monitor.sv(30) @ 0: uvm_test_top.env1.agt.monitor [MONITOR] Build phase executed
UVM_INFO ../tb/apb_scoreboard.sv(103) @ 0: uvm_test_top.env1.scb [SCOREBOARD] Build phase executed
----------------------------------------------------------------
Name                         Type                    Size  Value
----------------------------------------------------------------
uvm_test_top                 apb_random_stress_test  -     @343 
  env1                       apb_environment         -     @356 
    agt                      apb_agent               -     @367 
      driver1                apb_driver              -     @426 
        rsp_port             uvm_analysis_port       -     @445 
        seq_item_port        uvm_seq_item_pull_port  -     @435 
      monitor                apb_monitor             -     @407 
        item_collected_port  uvm_analysis_port       -     @416 
      seq1                   apb_sequencer           -     @455 
        rsp_export           uvm_analysis_export     -     @464 
        seq_item_export      uvm_seq_item_pull_imp   -     @582 
        arbitration_queue    array                   0     -    
        lock_queue           array                   0     -    
        num_last_reqs        integral                32    'd1  
        num_last_rsps        integral                32    'd1  
    cov                      apb_coverage            -     @385 
      analysis_imp           uvm_analysis_imp        -     @394 
    scb                      apb_scoreboard          -     @376 
      item_collected_export  uvm_analysis_imp        -     @605 
----------------------------------------------------------------
UVM_INFO ../tb/test.sv(1230) @ 0: uvm_test_top [STRESS_TEST] APB Random Stress Test Started
UVM_INFO ../tb/test.sv(1251) @ 0: uvm_test_top [STRESS_TEST] Starting Stress Round 1
UVM_INFO ../tb/test.sv(1326) @ 0: uvm_test_top [STRESS_TEST] Running apb_b2b_wr_sequence
UVM_INFO ../tb/apb_monitor.sv(134) @ 55: uvm_test_top.env1.agt.monitor [APB_MONITOR] TRANSFER: ADDR=0x00000100 WRITE=1 WDATA=0xa000000000000000 RDATA=0x0000000000000000 STRB=0xff PSLVERR=0
UVM_INFO ../tb/apb_scoreboard.sv(501) @ 55: uvm_test_top.env1.scb [APB_SCB_WRITE] WRITE OK: ADDR=0x00000100 IDX=32 DATA=0xa000000000000000 STRB=0xff MODEL=0xa000000000000000 VALID_BYTES=0xff
UVM_INFO ../tb/apb_monitor.sv(134) @ 95: uvm_test_top.env1.agt.monitor [APB_MONITOR] TRANSFER: ADDR=0x00000100 WRITE=0 WDATA=0x0000000000000000 RDATA=0xa000000000000000 STRB=0x00 PSLVERR=0
UVM_INFO ../tb/apb_scoreboard.sv(587) @ 95: uvm_test_top.env1.scb [APB_SCB_READ] READ MATCH: ADDR=0x00000100 IDX=32 EXPECTED=0xa000000000000000 ACTUAL=0xa000000000000000 VALID_BYTES=0xff
UVM_INFO ../tb/apb_monitor.sv(134) @ 135: uvm_test_top.env1.agt.monitor [APB_MONITOR] TRANSFER: ADDR=0x00000100 WRITE=1 WDATA=0xa000000000000001 RDATA=0x0000000000000000 STRB=0xff PSLVERR=0
UVM_INFO ../tb/apb_scoreboard.sv(501) @ 135: uvm_test_top.env1.scb [APB_SCB_WRITE] WRITE OK: ADDR=0x00000100 IDX=32 DATA=0xa000000000000001 STRB=0xff MODEL=0xa000000000000001 VALID_BYTES=0xff
UVM_INFO ../tb/apb_monitor.sv(134) @ 175: uvm_test_top.env1.agt.monitor [APB_MONITOR] TRANSFER: ADDR=0x00000100 WRITE=0 WDATA=0x0000000000000000 RDATA=0xa000000000000001 STRB=0x00 PSLVERR=0
UVM_INFO ../tb/apb_scoreboard.sv(587) @ 175: uvm_test_top.env1.scb [APB_SCB_READ] READ MATCH: ADDR=0x00000100 IDX=32 EXPECTED=0xa000000000000001 ACTUAL=0xa000000000000001 VALID_BYTES=0xff
UVM_INFO ../tb/apb_monitor.sv(134) @ 215: uvm_test_top.env1.agt.monitor [APB_MONITOR] TRANSFER: ADDR=0x00000100 WRITE=1 WDATA=0xa000000000000002 RDATA=0x0000000000000000 STRB=0xff PSLVERR=0
UVM_INFO ../tb/apb_scoreboard.sv(501) @ 215: uvm_test_top.env1.scb [APB_SCB_WRITE] WRITE OK: ADDR=0x00000100 IDX=32 DATA=0xa000000000000002 STRB=0xff MODEL=0xa000000000000002 VALID_BYTES=0xff
UVM_INFO ../tb/apb_monitor.sv(134) @ 255: uvm_test_top.env1.agt.monitor [APB_MONITOR] TRANSFER: ADDR=0x00000100 WRITE=0 WDATA=0x0000000000000000 RDATA=0xa000000000000002 STRB=0x00 PSLVERR=0
UVM_INFO ../tb/apb_scoreboard.sv(587) @ 255: uvm_test_top.env1.scb [APB_SCB_READ] READ MATCH: ADDR=0x00000100 IDX=32 EXPECTED=0xa000000000000002 ACTUAL=0xa000000000000002 VALID_BYTES=0xff
UVM_INFO ../tb/apb_monitor.sv(134) @ 295: uvm_test_top.env1.agt.monitor [APB_MONITOR] TRANSFER: ADDR=0x00000100 WRITE=1 WDATA=0xa000000000000003 RDATA=0x0000000000000000 STRB=0xff PSLVERR=0
UVM_INFO ../tb/apb_scoreboard.sv(501) @ 295: uvm_test_top.env1.scb [APB_SCB_WRITE] WRITE OK: ADDR=0x00000100 IDX=32 DATA=0xa000000000000003 STRB=0xff MODEL=0xa000000000000003 VALID_BYTES=0xff
UVM_INFO ../tb/apb_monitor.sv(134) @ 335: uvm_test_top.env1.agt.monitor [APB_MONITOR] TRANSFER: ADDR=0x00000100 WRITE=0 WDATA=0x0000000000000000 RDATA=0xa000000000000003 STRB=0x00 PSLVERR=0
UVM_INFO ../tb/apb_scoreboard.sv(587) @ 335: uvm_test_top.env1.scb [APB_SCB_READ] READ MATCH: ADDR=0x00000100 IDX=32 EXPECTED=0xa000000000000003 ACTUAL=0xa000000000000003 VALID_BYTES=0xff
UVM_INFO ../tb/apb_monitor.sv(134) @ 375: uvm_test_top.env1.agt.monitor [APB_MONITOR] TRANSFER: ADDR=0x00000100 WRITE=1 WDATA=0xa000000000000004 RDATA=0x0000000000000000 STRB=0xff PSLVERR=0
UVM_INFO ../tb/apb_scoreboard.sv(501) @ 375: uvm_test_top.env1.scb [APB_SCB_WRITE] WRITE OK: ADDR=0x00000100 IDX=32 DATA=0xa000000000000004 STRB=0xff MODEL=0xa000000000000004 VALID_BYTES=0xff
UVM_INFO ../tb/apb_monitor.sv(134) @ 415: uvm_test_top.env1.agt.monitor [APB_MONITOR] TRANSFER: ADDR=0x00000100 WRITE=0 WDATA=0x0000000000000000 RDATA=0xa000000000000004 STRB=0x00 PSLVERR=0
UVM_INFO ../tb/apb_scoreboard.sv(587) @ 415: uvm_test_top.env1.scb [APB_SCB_READ] READ MATCH: ADDR=0x00000100 IDX=32 EXPECTED=0xa000000000000004 ACTUAL=0xa000000000000004 VALID_BYTES=0xff
UVM_INFO ../tb/apb_monitor.sv(134) @ 455: uvm_test_top.env1.agt.monitor [APB_MONITOR] TRANSFER: ADDR=0x00000100 WRITE=1 WDATA=0xa000000000000005 RDATA=0x0000000000000000 STRB=0xff PSLVERR=0
UVM_INFO ../tb/apb_scoreboard.sv(501) @ 455: uvm_test_top.env1.scb [APB_SCB_WRITE] WRITE OK: ADDR=0x00000100 IDX=32 DATA=0xa000000000000005 STRB=0xff MODEL=0xa000000000000005 VALID_BYTES=0xff
UVM_INFO ../tb/apb_monitor.sv(134) @ 495: uvm_test_top.env1.agt.monitor [APB_MONITOR] TRANSFER: ADDR=0x00000100 WRITE=0 WDATA=0x0000000000000000 RDATA=0xa000000000000005 STRB=0x00 PSLVERR=0
UVM_INFO ../tb/apb_scoreboard.sv(587) @ 495: uvm_test_top.env1.scb [APB_SCB_READ] READ MATCH: ADDR=0x00000100 IDX=32 EXPECTED=0xa000000000000005 ACTUAL=0xa000000000000005 VALID_BYTES=0xff
UVM_INFO ../tb/apb_monitor.sv(134) @ 535: uvm_test_top.env1.agt.monitor [APB_MONITOR] TRANSFER: ADDR=0x00000100 WRITE=1 WDATA=0xa000000000000006 RDATA=0x0000000000000000 STRB=0xff PSLVERR=0
UVM_INFO ../tb/apb_scoreboard.sv(501) @ 535: uvm_test_top.env1.scb [APB_SCB_WRITE] WRITE OK: ADDR=0x00000100 IDX=32 DATA=0xa000000000000006 STRB=0xff MODEL=0xa000000000000006 VALID_BYTES=0xff
UVM_INFO ../tb/apb_monitor.sv(134) @ 575: uvm_test_top.env1.agt.monitor [APB_MONITOR] TRANSFER: ADDR=0x00000100 WRITE=0 WDATA=0x0000000000000000 RDATA=0xa000000000000006 STRB=0x00 PSLVERR=0
UVM_INFO ../tb/apb_scoreboard.sv(587) @ 575: uvm_test_top.env1.scb [APB_SCB_READ] READ MATCH: ADDR=0x00000100 IDX=32 EXPECTED=0xa000000000000006 ACTUAL=0xa000000000000006 VALID_BYTES=0xff
UVM_INFO ../tb/apb_monitor.sv(134) @ 615: uvm_test_top.env1.agt.monitor [APB_MONITOR] TRANSFER: ADDR=0x00000100 WRITE=1 WDATA=0xa000000000000007 RDATA=0x0000000000000000 STRB=0xff PSLVERR=0
UVM_INFO ../tb/apb_scoreboard.sv(501) @ 615: uvm_test_top.env1.scb [APB_SCB_WRITE] WRITE OK: ADDR=0x00000100 IDX=32 DATA=0xa000000000000007 STRB=0xff MODEL=0xa000000000000007 VALID_BYTES=0xff
UVM_INFO ../tb/apb_monitor.sv(134) @ 655: uvm_test_top.env1.agt.monitor [APB_MONITOR] TRANSFER: ADDR=0x00000100 WRITE=0 WDATA=0x0000000000000000 RDATA=0xa000000000000007 STRB=0x00 PSLVERR=0
UVM_INFO ../tb/apb_scoreboard.sv(587) @ 655: uvm_test_top.env1.scb [APB_SCB_READ] READ MATCH: ADDR=0x00000100 IDX=32 EXPECTED=0xa000000000000007 ACTUAL=0xa000000000000007 VALID_BYTES=0xff
UVM_INFO ../tb/apb_monitor.sv(134) @ 695: uvm_test_top.env1.agt.monitor [APB_MONITOR] TRANSFER: ADDR=0x00000100 WRITE=1 WDATA=0xa000000000000008 RDATA=0x0000000000000000 STRB=0xff PSLVERR=0
UVM_INFO ../tb/apb_scoreboard.sv(501) @ 695: uvm_test_top.env1.scb [APB_SCB_WRITE] WRITE OK: ADDR=0x00000100 IDX=32 DATA=0xa000000000000008 STRB=0xff MODEL=0xa000000000000008 VALID_BYTES=0xff
UVM_INFO ../tb/apb_monitor.sv(134) @ 735: uvm_test_top.env1.agt.monitor [APB_MONITOR] TRANSFER: ADDR=0x00000100 WRITE=0 WDATA=0x0000000000000000 RDATA=0xa000000000000008 STRB=0x00 PSLVERR=0
UVM_INFO ../tb/apb_scoreboard.sv(587) @ 735: uvm_test_top.env1.scb [APB_SCB_READ] READ MATCH: ADDR=0x00000100 IDX=32 EXPECTED=0xa000000000000008 ACTUAL=0xa000000000000008 VALID_BYTES=0xff
UVM_INFO ../tb/apb_monitor.sv(134) @ 775: uvm_test_top.env1.agt.monitor [APB_MONITOR] TRANSFER: ADDR=0x00000100 WRITE=1 WDATA=0xa000000000000009 RDATA=0x0000000000000000 STRB=0xff PSLVERR=0
UVM_INFO ../tb/apb_scoreboard.sv(501) @ 775: uvm_test_top.env1.scb [APB_SCB_WRITE] WRITE OK: ADDR=0x00000100 IDX=32 DATA=0xa000000000000009 STRB=0xff MODEL=0xa000000000000009 VALID_BYTES=0xff
UVM_INFO ../tb/apb_monitor.sv(134) @ 815: uvm_test_top.env1.agt.monitor [APB_MONITOR] TRANSFER: ADDR=0x00000100 WRITE=0 WDATA=0x0000000000000000 RDATA=0xa000000000000009 STRB=0x00 PSLVERR=0
UVM_INFO ../tb/apb_scoreboard.sv(587) @ 815: uvm_test_top.env1.scb [APB_SCB_READ] READ MATCH: ADDR=0x00000100 IDX=32 EXPECTED=0xa000000000000009 ACTUAL=0xa000000000000009 VALID_BYTES=0xff
UVM_INFO ../tb/test.sv(1454) @ 816: uvm_test_top [STRESS_TEST] Running apb_addr_misaligned_sequence
UVM_INFO ../tb/apb_sequence.sv(695) @ 816: uvm_test_top.env1.agt.seq1@@misaligned_seq_r0 [MISALIGNED_SEQ] APB Misaligned Address Sequence Started
UVM_INFO ../tb/apb_monitor.sv(134) @ 855: uvm_test_top.env1.agt.monitor [APB_MONITOR] TRANSFER: ADDR=0x00000101 WRITE=1 WDATA=0xa100000000000000 RDATA=0x0000000000000000 STRB=0xff PSLVERR=1
UVM_INFO ../tb/apb_monitor.sv(134) @ 895: uvm_test_top.env1.agt.monitor [APB_MONITOR] TRANSFER: ADDR=0x00000101 WRITE=0 WDATA=0x0000000000000000 RDATA=0xa000000000000009 STRB=0x00 PSLVERR=1
UVM_INFO ../tb/apb_monitor.sv(134) @ 935: uvm_test_top.env1.agt.monitor [APB_MONITOR] TRANSFER: ADDR=0x00000102 WRITE=1 WDATA=0xa100000000000001 RDATA=0x0000000000000000 STRB=0xff PSLVERR=1
UVM_INFO ../tb/apb_monitor.sv(134) @ 975: uvm_test_top.env1.agt.monitor [APB_MONITOR] TRANSFER: ADDR=0x00000102 WRITE=0 WDATA=0x0000000000000000 RDATA=0xa000000000000009 STRB=0x00 PSLVERR=1
UVM_INFO ../tb/apb_monitor.sv(134) @ 1015: uvm_test_top.env1.agt.monitor [APB_MONITOR] TRANSFER: ADDR=0x00000103 WRITE=1 WDATA=0xa100000000000002 RDATA=0x0000000000000000 STRB=0xff PSLVERR=1
UVM_INFO ../tb/apb_monitor.sv(134) @ 1055: uvm_test_top.env1.agt.monitor [APB_MONITOR] TRANSFER: ADDR=0x00000103 WRITE=0 WDATA=0x0000000000000000 RDATA=0xa000000000000009 STRB=0x00 PSLVERR=1
UVM_INFO ../tb/apb_monitor.sv(134) @ 1095: uvm_test_top.env1.agt.monitor [APB_MONITOR] TRANSFER: ADDR=0x00000104 WRITE=1 WDATA=0xa100000000000003 RDATA=0x0000000000000000 STRB=0xff PSLVERR=1
UVM_INFO ../tb/apb_monitor.sv(134) @ 1135: uvm_test_top.env1.agt.monitor [APB_MONITOR] TRANSFER: ADDR=0x00000104 WRITE=0 WDATA=0x0000000000000000 RDATA=0xa000000000000009 STRB=0x00 PSLVERR=1
UVM_INFO ../tb/apb_monitor.sv(134) @ 1175: uvm_test_top.env1.agt.monitor [APB_MONITOR] TRANSFER: ADDR=0x00000105 WRITE=1 WDATA=0xa100000000000004 RDATA=0x0000000000000000 STRB=0xff PSLVERR=1
UVM_INFO ../tb/apb_monitor.sv(134) @ 1215: uvm_test_top.env1.agt.monitor [APB_MONITOR] TRANSFER: ADDR=0x00000105 WRITE=0 WDATA=0x0000000000000000 RDATA=0xa000000000000009 STRB=0x00 PSLVERR=1
UVM_INFO ../tb/apb_monitor.sv(134) @ 1255: uvm_test_top.env1.agt.monitor [APB_MONITOR] TRANSFER: ADDR=0x00000106 WRITE=1 WDATA=0xa100000000000005 RDATA=0x0000000000000000 STRB=0xff PSLVERR=1
UVM_INFO ../tb/apb_monitor.sv(134) @ 1295: uvm_test_top.env1.agt.monitor [APB_MONITOR] TRANSFER: ADDR=0x00000106 WRITE=0 WDATA=0x0000000000000000 RDATA=0xa000000000000009 STRB=0x00 PSLVERR=1
UVM_INFO ../tb/apb_monitor.sv(134) @ 1335: uvm_test_top.env1.agt.monitor [APB_MONITOR] TRANSFER: ADDR=0x00000107 WRITE=1 WDATA=0xa100000000000006 RDATA=0x0000000000000000 STRB=0xff PSLVERR=1
UVM_INFO ../tb/apb_monitor.sv(134) @ 1375: uvm_test_top.env1.agt.monitor [APB_MONITOR] TRANSFER: ADDR=0x00000107 WRITE=0 WDATA=0x0000000000000000 RDATA=0xa000000000000009 STRB=0x00 PSLVERR=1
UVM_INFO ../tb/apb_sequence.sv(774) @ 1376: uvm_test_top.env1.agt.seq1@@misaligned_seq_r0 [MISALIGNED_SEQ] APB Misaligned Address Sequence Finished
UVM_INFO ../tb/test.sv(1422) @ 1376: uvm_test_top [STRESS_TEST] Running apb_strobe_sequence
UVM_INFO ../tb/apb_sequence.sv(605) @ 1376: uvm_test_top.env1.agt.seq1@@strobe_seq_r0 [STROBE_SEQ] APB Strobe Sequence Started
UVM_INFO ../tb/apb_monitor.sv(134) @ 1415: uvm_test_top.env1.agt.monitor [APB_MONITOR] TRANSFER: ADDR=0x00000200 WRITE=1 WDATA=0x1122334455667788 RDATA=0x0000000000000000 STRB=0xff PSLVERR=0
UVM_INFO ../tb/apb_scoreboard.sv(501) @ 1415: uvm_test_top.env1.scb [APB_SCB_WRITE] WRITE OK: ADDR=0x00000200 IDX=64 DATA=0x1122334455667788 STRB=0xff MODEL=0x1122334455667788 VALID_BYTES=0xff
UVM_INFO ../tb/apb_monitor.sv(134) @ 1455: uvm_test_top.env1.agt.monitor [APB_MONITOR] TRANSFER: ADDR=0x00000200 WRITE=0 WDATA=0x0000000000000000 RDATA=0x1122334455667788 STRB=0x00 PSLVERR=0
UVM_INFO ../tb/apb_scoreboard.sv(587) @ 1455: uvm_test_top.env1.scb [APB_SCB_READ] READ MATCH: ADDR=0x00000200 IDX=64 EXPECTED=0x1122334455667788 ACTUAL=0x1122334455667788 VALID_BYTES=0xff
UVM_INFO ../tb/apb_monitor.sv(134) @ 1495: uvm_test_top.env1.agt.monitor [APB_MONITOR] TRANSFER: ADDR=0x00000200 WRITE=1 WDATA=0x00000000000000aa RDATA=0x0000000000000000 STRB=0x01 PSLVERR=0
UVM_INFO ../tb/apb_scoreboard.sv(501) @ 1495: uvm_test_top.env1.scb [APB_SCB_WRITE] WRITE OK: ADDR=0x00000200 IDX=64 DATA=0x00000000000000aa STRB=0x01 MODEL=0x11223344556677aa VALID_BYTES=0xff
UVM_INFO ../tb/apb_monitor.sv(134) @ 1535: uvm_test_top.env1.agt.monitor [APB_MONITOR] TRANSFER: ADDR=0x00000200 WRITE=0 WDATA=0x0000000000000000 RDATA=0x11223344556677aa STRB=0x00 PSLVERR=0
UVM_INFO ../tb/apb_scoreboard.sv(587) @ 1535: uvm_test_top.env1.scb [APB_SCB_READ] READ MATCH: ADDR=0x00000200 IDX=64 EXPECTED=0x11223344556677aa ACTUAL=0x11223344556677aa VALID_BYTES=0xff
UVM_INFO ../tb/apb_monitor.sv(134) @ 1575: uvm_test_top.env1.agt.monitor [APB_MONITOR] TRANSFER: ADDR=0x00000200 WRITE=1 WDATA=0xbb00000000000000 RDATA=0x0000000000000000 STRB=0x80 PSLVERR=0
UVM_INFO ../tb/apb_scoreboard.sv(501) @ 1575: uvm_test_top.env1.scb [APB_SCB_WRITE] WRITE OK: ADDR=0x00000200 IDX=64 DATA=0xbb00000000000000 STRB=0x80 MODEL=0xbb223344556677aa VALID_BYTES=0xff
UVM_INFO ../tb/apb_monitor.sv(134) @ 1615: uvm_test_top.env1.agt.monitor [APB_MONITOR] TRANSFER: ADDR=0x00000200 WRITE=0 WDATA=0x0000000000000000 RDATA=0xbb223344556677aa STRB=0x00 PSLVERR=0
UVM_INFO ../tb/apb_scoreboard.sv(587) @ 1615: uvm_test_top.env1.scb [APB_SCB_READ] READ MATCH: ADDR=0x00000200 IDX=64 EXPECTED=0xbb223344556677aa ACTUAL=0xbb223344556677aa VALID_BYTES=0xff
UVM_INFO ../tb/apb_monitor.sv(134) @ 1655: uvm_test_top.env1.agt.monitor [APB_MONITOR] TRANSFER: ADDR=0x00000200 WRITE=1 WDATA=0x00000000deadbeef RDATA=0x0000000000000000 STRB=0x0f PSLVERR=0
UVM_INFO ../tb/apb_scoreboard.sv(501) @ 1655: uvm_test_top.env1.scb [APB_SCB_WRITE] WRITE OK: ADDR=0x00000200 IDX=64 DATA=0x00000000deadbeef STRB=0x0f MODEL=0xbb223344deadbeef VALID_BYTES=0xff
UVM_INFO ../tb/apb_monitor.sv(134) @ 1695: uvm_test_top.env1.agt.monitor [APB_MONITOR] TRANSFER: ADDR=0x00000200 WRITE=0 WDATA=0x0000000000000000 RDATA=0xbb223344deadbeef STRB=0x00 PSLVERR=0
UVM_INFO ../tb/apb_scoreboard.sv(587) @ 1695: uvm_test_top.env1.scb [APB_SCB_READ] READ MATCH: ADDR=0x00000200 IDX=64 EXPECTED=0xbb223344deadbeef ACTUAL=0xbb223344deadbeef VALID_BYTES=0xff
UVM_INFO ../tb/apb_monitor.sv(134) @ 1735: uvm_test_top.env1.agt.monitor [APB_MONITOR] TRANSFER: ADDR=0x00000200 WRITE=1 WDATA=0xcafebabe00000000 RDATA=0x0000000000000000 STRB=0xf0 PSLVERR=0
UVM_INFO ../tb/apb_scoreboard.sv(501) @ 1735: uvm_test_top.env1.scb [APB_SCB_WRITE] WRITE OK: ADDR=0x00000200 IDX=64 DATA=0xcafebabe00000000 STRB=0xf0 MODEL=0xcafebabedeadbeef VALID_BYTES=0xff
UVM_INFO ../tb/apb_monitor.sv(134) @ 1775: uvm_test_top.env1.agt.monitor [APB_MONITOR] TRANSFER: ADDR=0x00000200 WRITE=0 WDATA=0x0000000000000000 RDATA=0xcafebabedeadbeef STRB=0x00 PSLVERR=0
UVM_INFO ../tb/apb_scoreboard.sv(587) @ 1775: uvm_test_top.env1.scb [APB_SCB_READ] READ MATCH: ADDR=0x00000200 IDX=64 EXPECTED=0xcafebabedeadbeef ACTUAL=0xcafebabedeadbeef VALID_BYTES=0xff
UVM_INFO ../tb/apb_monitor.sv(134) @ 1815: uvm_test_top.env1.agt.monitor [APB_MONITOR] TRANSFER: ADDR=0x00000200 WRITE=1 WDATA=0x0102030405060708 RDATA=0x0000000000000000 STRB=0x55 PSLVERR=0
UVM_INFO ../tb/apb_scoreboard.sv(501) @ 1815: uvm_test_top.env1.scb [APB_SCB_WRITE] WRITE OK: ADDR=0x00000200 IDX=64 DATA=0x0102030405060708 STRB=0x55 MODEL=0xca02ba04de06be08 VALID_BYTES=0xff
UVM_INFO ../tb/apb_monitor.sv(134) @ 1855: uvm_test_top.env1.agt.monitor [APB_MONITOR] TRANSFER: ADDR=0x00000200 WRITE=0 WDATA=0x0000000000000000 RDATA=0xca02ba04de06be08 STRB=0x00 PSLVERR=0
UVM_INFO ../tb/apb_scoreboard.sv(587) @ 1855: uvm_test_top.env1.scb [APB_SCB_READ] READ MATCH: ADDR=0x00000200 IDX=64 EXPECTED=0xca02ba04de06be08 ACTUAL=0xca02ba04de06be08 VALID_BYTES=0xff
UVM_INFO ../tb/apb_monitor.sv(134) @ 1895: uvm_test_top.env1.agt.monitor [APB_MONITOR] TRANSFER: ADDR=0x00000200 WRITE=1 WDATA=0x1020304050607080 RDATA=0x0000000000000000 STRB=0xaa PSLVERR=0
UVM_INFO ../tb/apb_scoreboard.sv(501) @ 1895: uvm_test_top.env1.scb [APB_SCB_WRITE] WRITE OK: ADDR=0x00000200 IDX=64 DATA=0x1020304050607080 STRB=0xaa MODEL=0x1002300450067008 VALID_BYTES=0xff
UVM_INFO ../tb/apb_monitor.sv(134) @ 1935: uvm_test_top.env1.agt.monitor [APB_MONITOR] TRANSFER: ADDR=0x00000200 WRITE=0 WDATA=0x0000000000000000 RDATA=0x1002300450067008 STRB=0x00 PSLVERR=0
UVM_INFO ../tb/apb_scoreboard.sv(587) @ 1935: uvm_test_top.env1.scb [APB_SCB_READ] READ MATCH: ADDR=0x00000200 IDX=64 EXPECTED=0x1002300450067008 ACTUAL=0x1002300450067008 VALID_BYTES=0xff
UVM_INFO ../tb/apb_monitor.sv(134) @ 1975: uvm_test_top.env1.agt.monitor [APB_MONITOR] TRANSFER: ADDR=0x00000200 WRITE=1 WDATA=0x000000000000bbcc RDATA=0x0000000000000000 STRB=0x03 PSLVERR=0
UVM_INFO ../tb/apb_scoreboard.sv(501) @ 1975: uvm_test_top.env1.scb [APB_SCB_WRITE] WRITE OK: ADDR=0x00000200 IDX=64 DATA=0x000000000000bbcc STRB=0x03 MODEL=0x100230045006bbcc VALID_BYTES=0xff
UVM_INFO ../tb/apb_monitor.sv(134) @ 2015: uvm_test_top.env1.agt.monitor [APB_MONITOR] TRANSFER: ADDR=0x00000200 WRITE=0 WDATA=0x0000000000000000 RDATA=0x100230045006bbcc STRB=0x00 PSLVERR=0
UVM_INFO ../tb/apb_scoreboard.sv(587) @ 2015: uvm_test_top.env1.scb [APB_SCB_READ] READ MATCH: ADDR=0x00000200 IDX=64 EXPECTED=0x100230045006bbcc ACTUAL=0x100230045006bbcc VALID_BYTES=0xff
UVM_INFO ../tb/apb_monitor.sv(134) @ 2055: uvm_test_top.env1.agt.monitor [APB_MONITOR] TRANSFER: ADDR=0x00000200 WRITE=1 WDATA=0x00000000ddee0000 RDATA=0x0000000000000000 STRB=0x0c PSLVERR=0
UVM_INFO ../tb/apb_scoreboard.sv(501) @ 2055: uvm_test_top.env1.scb [APB_SCB_WRITE] WRITE OK: ADDR=0x00000200 IDX=64 DATA=0x00000000ddee0000 STRB=0x0c MODEL=0x10023004ddeebbcc VALID_BYTES=0xff
UVM_INFO ../tb/apb_monitor.sv(134) @ 2095: uvm_test_top.env1.agt.monitor [APB_MONITOR] TRANSFER: ADDR=0x00000200 WRITE=0 WDATA=0x0000000000000000 RDATA=0x10023004ddeebbcc STRB=0x00 PSLVERR=0
UVM_INFO ../tb/apb_scoreboard.sv(587) @ 2095: uvm_test_top.env1.scb [APB_SCB_READ] READ MATCH: ADDR=0x00000200 IDX=64 EXPECTED=0x10023004ddeebbcc ACTUAL=0x10023004ddeebbcc VALID_BYTES=0xff
UVM_INFO ../tb/apb_monitor.sv(134) @ 2135: uvm_test_top.env1.agt.monitor [APB_MONITOR] TRANSFER: ADDR=0x00000200 WRITE=1 WDATA=0x0000112200000000 RDATA=0x0000000000000000 STRB=0x30 PSLVERR=0
UVM_INFO ../tb/apb_scoreboard.sv(501) @ 2135: uvm_test_top.env1.scb [APB_SCB_WRITE] WRITE OK: ADDR=0x00000200 IDX=64 DATA=0x0000112200000000 STRB=0x30 MODEL=0x10021122ddeebbcc VALID_BYTES=0xff
UVM_INFO ../tb/apb_monitor.sv(134) @ 2175: uvm_test_top.env1.agt.monitor [APB_MONITOR] TRANSFER: ADDR=0x00000200 WRITE=0 WDATA=0x0000000000000000 RDATA=0x10021122ddeebbcc STRB=0x00 PSLVERR=0
UVM_INFO ../tb/apb_scoreboard.sv(587) @ 2175: uvm_test_top.env1.scb [APB_SCB_READ] READ MATCH: ADDR=0x00000200 IDX=64 EXPECTED=0x10021122ddeebbcc ACTUAL=0x10021122ddeebbcc VALID_BYTES=0xff
UVM_INFO ../tb/apb_monitor.sv(134) @ 2215: uvm_test_top.env1.agt.monitor [APB_MONITOR] TRANSFER: ADDR=0x00000200 WRITE=1 WDATA=0x3344000000000000 RDATA=0x0000000000000000 STRB=0xc0 PSLVERR=0
UVM_INFO ../tb/apb_scoreboard.sv(501) @ 2215: uvm_test_top.env1.scb [APB_SCB_WRITE] WRITE OK: ADDR=0x00000200 IDX=64 DATA=0x3344000000000000 STRB=0xc0 MODEL=0x33441122ddeebbcc VALID_BYTES=0xff
UVM_INFO ../tb/apb_monitor.sv(134) @ 2255: uvm_test_top.env1.agt.monitor [APB_MONITOR] TRANSFER: ADDR=0x00000200 WRITE=0 WDATA=0x0000000000000000 RDATA=0x33441122ddeebbcc STRB=0x00 PSLVERR=0
UVM_INFO ../tb/apb_scoreboard.sv(587) @ 2255: uvm_test_top.env1.scb [APB_SCB_READ] READ MATCH: ADDR=0x00000200 IDX=64 EXPECTED=0x33441122ddeebbcc ACTUAL=0x33441122ddeebbcc VALID_BYTES=0xff
UVM_INFO ../tb/apb_monitor.sv(134) @ 2295: uvm_test_top.env1.agt.monitor [APB_MONITOR] TRANSFER: ADDR=0x00000200 WRITE=1 WDATA=0xaa000000000000bb RDATA=0x0000000000000000 STRB=0x81 PSLVERR=0
UVM_INFO ../tb/apb_scoreboard.sv(501) @ 2295: uvm_test_top.env1.scb [APB_SCB_WRITE] WRITE OK: ADDR=0x00000200 IDX=64 DATA=0xaa000000000000bb STRB=0x81 MODEL=0xaa441122ddeebbbb VALID_BYTES=0xff
UVM_INFO ../tb/apb_monitor.sv(134) @ 2335: uvm_test_top.env1.agt.monitor [APB_MONITOR] TRANSFER: ADDR=0x00000200 WRITE=0 WDATA=0x0000000000000000 RDATA=0xaa441122ddeebbbb STRB=0x00 PSLVERR=0
UVM_INFO ../tb/apb_scoreboard.sv(587) @ 2335: uvm_test_top.env1.scb [APB_SCB_READ] READ MATCH: ADDR=0x00000200 IDX=64 EXPECTED=0xaa441122ddeebbbb ACTUAL=0xaa441122ddeebbbb VALID_BYTES=0xff
UVM_INFO ../tb/apb_monitor.sv(134) @ 2375: uvm_test_top.env1.agt.monitor [APB_MONITOR] TRANSFER: ADDR=0x00000200 WRITE=1 WDATA=0x00000000cc00dd00 RDATA=0x0000000000000000 STRB=0x18 PSLVERR=0
UVM_INFO ../tb/apb_scoreboard.sv(501) @ 2375: uvm_test_top.env1.scb [APB_SCB_WRITE] WRITE OK: ADDR=0x00000200 IDX=64 DATA=0x00000000cc00dd00 STRB=0x18 MODEL=0xaa441100cceebbbb VALID_BYTES=0xff
UVM_INFO ../tb/apb_monitor.sv(134) @ 2415: uvm_test_top.env1.agt.monitor [APB_MONITOR] TRANSFER: ADDR=0x00000200 WRITE=0 WDATA=0x0000000000000000 RDATA=0xaa441100cceebbbb STRB=0x00 PSLVERR=0
UVM_INFO ../tb/apb_scoreboard.sv(587) @ 2415: uvm_test_top.env1.scb [APB_SCB_READ] READ MATCH: ADDR=0x00000200 IDX=64 EXPECTED=0xaa441100cceebbbb ACTUAL=0xaa441100cceebbbb VALID_BYTES=0xff
UVM_INFO ../tb/apb_monitor.sv(134) @ 2455: uvm_test_top.env1.agt.monitor [APB_MONITOR] TRANSFER: ADDR=0x00000200 WRITE=1 WDATA=0xffffffffffffffff RDATA=0x0000000000000000 STRB=0x00 PSLVERR=0
UVM_INFO ../tb/apb_scoreboard.sv(501) @ 2455: uvm_test_top.env1.scb [APB_SCB_WRITE] WRITE OK: ADDR=0x00000200 IDX=64 DATA=0xffffffffffffffff STRB=0x00 MODEL=0xaa441100cceebbbb VALID_BYTES=0xff
UVM_INFO ../tb/apb_monitor.sv(134) @ 2495: uvm_test_top.env1.agt.monitor [APB_MONITOR] TRANSFER: ADDR=0x00000200 WRITE=0 WDATA=0x0000000000000000 RDATA=0xaa441100cceebbbb STRB=0x00 PSLVERR=0
UVM_INFO ../tb/apb_scoreboard.sv(587) @ 2495: uvm_test_top.env1.scb [APB_SCB_READ] READ MATCH: ADDR=0x00000200 IDX=64 EXPECTED=0xaa441100cceebbbb ACTUAL=0xaa441100cceebbbb VALID_BYTES=0xff
UVM_INFO ../tb/apb_sequence.sv(657) @ 2496: uvm_test_top.env1.agt.seq1@@strobe_seq_r0 [STROBE_SEQ] APB Strobe Sequence Finished
UVM_INFO ../tb/test.sv(1486) @ 2496: uvm_test_top [STRESS_TEST] Running apb_boundary_sequence
UVM_INFO ../tb/apb_monitor.sv(134) @ 2535: uvm_test_top.env1.agt.monitor [APB_MONITOR] TRANSFER: ADDR=0x00000000 WRITE=1 WDATA=0x1111222233334444 RDATA=0x0000000000000000 STRB=0xff PSLVERR=0
UVM_INFO ../tb/apb_scoreboard.sv(501) @ 2535: uvm_test_top.env1.scb [APB_SCB_WRITE] WRITE OK: ADDR=0x00000000 IDX=0 DATA=0x1111222233334444 STRB=0xff MODEL=0x1111222233334444 VALID_BYTES=0xff
UVM_INFO ../tb/apb_monitor.sv(134) @ 2575: uvm_test_top.env1.agt.monitor [APB_MONITOR] TRANSFER: ADDR=0x0000fff8 WRITE=1 WDATA=0xaaaabbbbccccdddd RDATA=0x0000000000000000 STRB=0xff PSLVERR=0
UVM_INFO ../tb/apb_scoreboard.sv(501) @ 2575: uvm_test_top.env1.scb [APB_SCB_WRITE] WRITE OK: ADDR=0x0000fff8 IDX=8191 DATA=0xaaaabbbbccccdddd STRB=0xff MODEL=0xaaaabbbbccccdddd VALID_BYTES=0xff
UVM_INFO ../tb/apb_monitor.sv(134) @ 2615: uvm_test_top.env1.agt.monitor [APB_MONITOR] TRANSFER: ADDR=0x00000000 WRITE=0 WDATA=0x0000000000000000 RDATA=0x1111222233334444 STRB=0x00 PSLVERR=0
UVM_INFO ../tb/apb_scoreboard.sv(587) @ 2615: uvm_test_top.env1.scb [APB_SCB_READ] READ MATCH: ADDR=0x00000000 IDX=0 EXPECTED=0x1111222233334444 ACTUAL=0x1111222233334444 VALID_BYTES=0xff
UVM_INFO ../tb/apb_monitor.sv(134) @ 2655: uvm_test_top.env1.agt.monitor [APB_MONITOR] TRANSFER: ADDR=0x0000fff8 WRITE=0 WDATA=0x0000000000000000 RDATA=0xaaaabbbbccccdddd STRB=0x00 PSLVERR=0
UVM_INFO ../tb/apb_scoreboard.sv(587) @ 2655: uvm_test_top.env1.scb [APB_SCB_READ] READ MATCH: ADDR=0x0000fff8 IDX=8191 EXPECTED=0xaaaabbbbccccdddd ACTUAL=0xaaaabbbbccccdddd VALID_BYTES=0xff
UVM_INFO ../tb/test.sv(1294) @ 2656: uvm_test_top [STRESS_TEST] Running apb_successive_wr_sequence
UVM_INFO ../tb/apb_sequence.sv(256) @ 2656: uvm_test_top.env1.agt.seq1@@successive_seq_r0 [apb_successive_wr_sequence] Successive Write/Read Sequence Started
UVM_INFO ../tb/apb_monitor.sv(134) @ 2695: uvm_test_top.env1.agt.monitor [APB_MONITOR] TRANSFER: ADDR=0x00000000 WRITE=1 WDATA=0x1000000000000000 RDATA=0x0000000000000000 STRB=0xff PSLVERR=0
UVM_INFO ../tb/apb_scoreboard.sv(501) @ 2695: uvm_test_top.env1.scb [APB_SCB_WRITE] WRITE OK: ADDR=0x00000000 IDX=0 DATA=0x1000000000000000 STRB=0xff MODEL=0x1000000000000000 VALID_BYTES=0xff
UVM_INFO ../tb/apb_monitor.sv(134) @ 2735: uvm_test_top.env1.agt.monitor [APB_MONITOR] TRANSFER: ADDR=0x00000008 WRITE=1 WDATA=0x1000000000000001 RDATA=0x0000000000000000 STRB=0xff PSLVERR=0
UVM_INFO ../tb/apb_scoreboard.sv(501) @ 2735: uvm_test_top.env1.scb [APB_SCB_WRITE] WRITE OK: ADDR=0x00000008 IDX=1 DATA=0x1000000000000001 STRB=0xff MODEL=0x1000000000000001 VALID_BYTES=0xff
UVM_INFO ../tb/apb_monitor.sv(134) @ 2775: uvm_test_top.env1.agt.monitor [APB_MONITOR] TRANSFER: ADDR=0x00000010 WRITE=1 WDATA=0x1000000000000002 RDATA=0x0000000000000000 STRB=0xff PSLVERR=0
UVM_INFO ../tb/apb_scoreboard.sv(501) @ 2775: uvm_test_top.env1.scb [APB_SCB_WRITE] WRITE OK: ADDR=0x00000010 IDX=2 DATA=0x1000000000000002 STRB=0xff MODEL=0x1000000000000002 VALID_BYTES=0xff
UVM_INFO ../tb/apb_monitor.sv(134) @ 2815: uvm_test_top.env1.agt.monitor [APB_MONITOR] TRANSFER: ADDR=0x00000018 WRITE=1 WDATA=0x1000000000000003 RDATA=0x0000000000000000 STRB=0xff PSLVERR=0
UVM_INFO ../tb/apb_scoreboard.sv(501) @ 2815: uvm_test_top.env1.scb [APB_SCB_WRITE] WRITE OK: ADDR=0x00000018 IDX=3 DATA=0x1000000000000003 STRB=0xff MODEL=0x1000000000000003 VALID_BYTES=0xff
UVM_INFO ../tb/apb_monitor.sv(134) @ 2855: uvm_test_top.env1.agt.monitor [APB_MONITOR] TRANSFER: ADDR=0x00000020 WRITE=1 WDATA=0x1000000000000004 RDATA=0x0000000000000000 STRB=0xff PSLVERR=0
UVM_INFO ../tb/apb_scoreboard.sv(501) @ 2855: uvm_test_top.env1.scb [APB_SCB_WRITE] WRITE OK: ADDR=0x00000020 IDX=4 DATA=0x1000000000000004 STRB=0xff MODEL=0x1000000000000004 VALID_BYTES=0xff
UVM_INFO ../tb/apb_monitor.sv(134) @ 2895: uvm_test_top.env1.agt.monitor [APB_MONITOR] TRANSFER: ADDR=0x00000028 WRITE=1 WDATA=0x1000000000000005 RDATA=0x0000000000000000 STRB=0xff PSLVERR=0
UVM_INFO ../tb/apb_scoreboard.sv(501) @ 2895: uvm_test_top.env1.scb [APB_SCB_WRITE] WRITE OK: ADDR=0x00000028 IDX=5 DATA=0x1000000000000005 STRB=0xff MODEL=0x1000000000000005 VALID_BYTES=0xff
UVM_INFO ../tb/apb_monitor.sv(134) @ 2935: uvm_test_top.env1.agt.monitor [APB_MONITOR] TRANSFER: ADDR=0x00000030 WRITE=1 WDATA=0x1000000000000006 RDATA=0x0000000000000000 STRB=0xff PSLVERR=0
UVM_INFO ../tb/apb_scoreboard.sv(501) @ 2935: uvm_test_top.env1.scb [APB_SCB_WRITE] WRITE OK: ADDR=0x00000030 IDX=6 DATA=0x1000000000000006 STRB=0xff MODEL=0x1000000000000006 VALID_BYTES=0xff
UVM_INFO ../tb/apb_monitor.sv(134) @ 2975: uvm_test_top.env1.agt.monitor [APB_MONITOR] TRANSFER: ADDR=0x00000038 WRITE=1 WDATA=0x1000000000000007 RDATA=0x0000000000000000 STRB=0xff PSLVERR=0
UVM_INFO ../tb/apb_scoreboard.sv(501) @ 2975: uvm_test_top.env1.scb [APB_SCB_WRITE] WRITE OK: ADDR=0x00000038 IDX=7 DATA=0x1000000000000007 STRB=0xff MODEL=0x1000000000000007 VALID_BYTES=0xff
UVM_INFO ../tb/apb_monitor.sv(134) @ 3015: uvm_test_top.env1.agt.monitor [APB_MONITOR] TRANSFER: ADDR=0x00000040 WRITE=1 WDATA=0x1000000000000008 RDATA=0x0000000000000000 STRB=0xff PSLVERR=0
UVM_INFO ../tb/apb_scoreboard.sv(501) @ 3015: uvm_test_top.env1.scb [APB_SCB_WRITE] WRITE OK: ADDR=0x00000040 IDX=8 DATA=0x1000000000000008 STRB=0xff MODEL=0x1000000000000008 VALID_BYTES=0xff
UVM_INFO ../tb/apb_monitor.sv(134) @ 3055: uvm_test_top.env1.agt.monitor [APB_MONITOR] TRANSFER: ADDR=0x00000048 WRITE=1 WDATA=0x1000000000000009 RDATA=0x0000000000000000 STRB=0xff PSLVERR=0
UVM_INFO ../tb/apb_scoreboard.sv(501) @ 3055: uvm_test_top.env1.scb [APB_SCB_WRITE] WRITE OK: ADDR=0x00000048 IDX=9 DATA=0x1000000000000009 STRB=0xff MODEL=0x1000000000000009 VALID_BYTES=0xff
UVM_INFO ../tb/apb_monitor.sv(134) @ 3095: uvm_test_top.env1.agt.monitor [APB_MONITOR] TRANSFER: ADDR=0x00000050 WRITE=1 WDATA=0x100000000000000a RDATA=0x0000000000000000 STRB=0xff PSLVERR=0
UVM_INFO ../tb/apb_scoreboard.sv(501) @ 3095: uvm_test_top.env1.scb [APB_SCB_WRITE] WRITE OK: ADDR=0x00000050 IDX=10 DATA=0x100000000000000a STRB=0xff MODEL=0x100000000000000a VALID_BYTES=0xff
UVM_INFO ../tb/apb_monitor.sv(134) @ 3135: uvm_test_top.env1.agt.monitor [APB_MONITOR] TRANSFER: ADDR=0x00000058 WRITE=1 WDATA=0x100000000000000b RDATA=0x0000000000000000 STRB=0xff PSLVERR=0
UVM_INFO ../tb/apb_scoreboard.sv(501) @ 3135: uvm_test_top.env1.scb [APB_SCB_WRITE] WRITE OK: ADDR=0x00000058 IDX=11 DATA=0x100000000000000b STRB=0xff MODEL=0x100000000000000b VALID_BYTES=0xff
UVM_INFO ../tb/apb_monitor.sv(134) @ 3175: uvm_test_top.env1.agt.monitor [APB_MONITOR] TRANSFER: ADDR=0x00000060 WRITE=1 WDATA=0x100000000000000c RDATA=0x0000000000000000 STRB=0xff PSLVERR=0
UVM_INFO ../tb/apb_scoreboard.sv(501) @ 3175: uvm_test_top.env1.scb [APB_SCB_WRITE] WRITE OK: ADDR=0x00000060 IDX=12 DATA=0x100000000000000c STRB=0xff MODEL=0x100000000000000c VALID_BYTES=0xff
UVM_INFO ../tb/apb_monitor.sv(134) @ 3215: uvm_test_top.env1.agt.monitor [APB_MONITOR] TRANSFER: ADDR=0x00000068 WRITE=1 WDATA=0x100000000000000d RDATA=0x0000000000000000 STRB=0xff PSLVERR=0
UVM_INFO ../tb/apb_scoreboard.sv(501) @ 3215: uvm_test_top.env1.scb [APB_SCB_WRITE] WRITE OK: ADDR=0x00000068 IDX=13 DATA=0x100000000000000d STRB=0xff MODEL=0x100000000000000d VALID_BYTES=0xff
UVM_INFO ../tb/apb_monitor.sv(134) @ 3255: uvm_test_top.env1.agt.monitor [APB_MONITOR] TRANSFER: ADDR=0x00000070 WRITE=1 WDATA=0x100000000000000e RDATA=0x0000000000000000 STRB=0xff PSLVERR=0
UVM_INFO ../tb/apb_scoreboard.sv(501) @ 3255: uvm_test_top.env1.scb [APB_SCB_WRITE] WRITE OK: ADDR=0x00000070 IDX=14 DATA=0x100000000000000e STRB=0xff MODEL=0x100000000000000e VALID_BYTES=0xff
UVM_INFO ../tb/apb_monitor.sv(134) @ 3295: uvm_test_top.env1.agt.monitor [APB_MONITOR] TRANSFER: ADDR=0x00000078 WRITE=1 WDATA=0x100000000000000f RDATA=0x0000000000000000 STRB=0xff PSLVERR=0
UVM_INFO ../tb/apb_scoreboard.sv(501) @ 3295: uvm_test_top.env1.scb [APB_SCB_WRITE] WRITE OK: ADDR=0x00000078 IDX=15 DATA=0x100000000000000f STRB=0xff MODEL=0x100000000000000f VALID_BYTES=0xff
UVM_INFO ../tb/apb_monitor.sv(134) @ 3335: uvm_test_top.env1.agt.monitor [APB_MONITOR] TRANSFER: ADDR=0x00000080 WRITE=1 WDATA=0x1000000000000010 RDATA=0x0000000000000000 STRB=0xff PSLVERR=0
UVM_INFO ../tb/apb_scoreboard.sv(501) @ 3335: uvm_test_top.env1.scb [APB_SCB_WRITE] WRITE OK: ADDR=0x00000080 IDX=16 DATA=0x1000000000000010 STRB=0xff MODEL=0x1000000000000010 VALID_BYTES=0xff
UVM_INFO ../tb/apb_monitor.sv(134) @ 3375: uvm_test_top.env1.agt.monitor [APB_MONITOR] TRANSFER: ADDR=0x00000088 WRITE=1 WDATA=0x1000000000000011 RDATA=0x0000000000000000 STRB=0xff PSLVERR=0
UVM_INFO ../tb/apb_scoreboard.sv(501) @ 3375: uvm_test_top.env1.scb [APB_SCB_WRITE] WRITE OK: ADDR=0x00000088 IDX=17 DATA=0x1000000000000011 STRB=0xff MODEL=0x1000000000000011 VALID_BYTES=0xff
UVM_INFO ../tb/apb_monitor.sv(134) @ 3415: uvm_test_top.env1.agt.monitor [APB_MONITOR] TRANSFER: ADDR=0x00000090 WRITE=1 WDATA=0x1000000000000012 RDATA=0x0000000000000000 STRB=0xff PSLVERR=0
UVM_INFO ../tb/apb_scoreboard.sv(501) @ 3415: uvm_test_top.env1.scb [APB_SCB_WRITE] WRITE OK: ADDR=0x00000090 IDX=18 DATA=0x1000000000000012 STRB=0xff MODEL=0x1000000000000012 VALID_BYTES=0xff
UVM_INFO ../tb/apb_monitor.sv(134) @ 3455: uvm_test_top.env1.agt.monitor [APB_MONITOR] TRANSFER: ADDR=0x00000098 WRITE=1 WDATA=0x1000000000000013 RDATA=0x0000000000000000 STRB=0xff PSLVERR=0
UVM_INFO ../tb/apb_scoreboard.sv(501) @ 3455: uvm_test_top.env1.scb [APB_SCB_WRITE] WRITE OK: ADDR=0x00000098 IDX=19 DATA=0x1000000000000013 STRB=0xff MODEL=0x1000000000000013 VALID_BYTES=0xff
UVM_INFO ../tb/apb_monitor.sv(134) @ 3495: uvm_test_top.env1.agt.monitor [APB_MONITOR] TRANSFER: ADDR=0x000000a0 WRITE=1 WDATA=0x1000000000000014 RDATA=0x0000000000000000 STRB=0xff PSLVERR=0
UVM_INFO ../tb/apb_scoreboard.sv(501) @ 3495: uvm_test_top.env1.scb [APB_SCB_WRITE] WRITE OK: ADDR=0x000000a0 IDX=20 DATA=0x1000000000000014 STRB=0xff MODEL=0x1000000000000014 VALID_BYTES=0xff
UVM_INFO ../tb/apb_monitor.sv(134) @ 3535: uvm_test_top.env1.agt.monitor [APB_MONITOR] TRANSFER: ADDR=0x000000a8 WRITE=1 WDATA=0x1000000000000015 RDATA=0x0000000000000000 STRB=0xff PSLVERR=0
UVM_INFO ../tb/apb_scoreboard.sv(501) @ 3535: uvm_test_top.env1.scb [APB_SCB_WRITE] WRITE OK: ADDR=0x000000a8 IDX=21 DATA=0x1000000000000015 STRB=0xff MODEL=0x1000000000000015 VALID_BYTES=0xff
UVM_INFO ../tb/apb_monitor.sv(134) @ 3575: uvm_test_top.env1.agt.monitor [APB_MONITOR] TRANSFER: ADDR=0x000000b0 WRITE=1 WDATA=0x1000000000000016 RDATA=0x0000000000000000 STRB=0xff PSLVERR=0
UVM_INFO ../tb/apb_scoreboard.sv(501) @ 3575: uvm_test_top.env1.scb [APB_SCB_WRITE] WRITE OK: ADDR=0x000000b0 IDX=22 DATA=0x1000000000000016 STRB=0xff MODEL=0x1000000000000016 VALID_BYTES=0xff
UVM_INFO ../tb/apb_monitor.sv(134) @ 3615: uvm_test_top.env1.agt.monitor [APB_MONITOR] TRANSFER: ADDR=0x000000b8 WRITE=1 WDATA=0x1000000000000017 RDATA=0x0000000000000000 STRB=0xff PSLVERR=0
UVM_INFO ../tb/apb_scoreboard.sv(501) @ 3615: uvm_test_top.env1.scb [APB_SCB_WRITE] WRITE OK: ADDR=0x000000b8 IDX=23 DATA=0x1000000000000017 STRB=0xff MODEL=0x1000000000000017 VALID_BYTES=0xff
UVM_INFO ../tb/apb_monitor.sv(134) @ 3655: uvm_test_top.env1.agt.monitor [APB_MONITOR] TRANSFER: ADDR=0x000000c0 WRITE=1 WDATA=0x1000000000000018 RDATA=0x0000000000000000 STRB=0xff PSLVERR=0
UVM_INFO ../tb/apb_scoreboard.sv(501) @ 3655: uvm_test_top.env1.scb [APB_SCB_WRITE] WRITE OK: ADDR=0x000000c0 IDX=24 DATA=0x1000000000000018 STRB=0xff MODEL=0x1000000000000018 VALID_BYTES=0xff
UVM_INFO ../tb/apb_monitor.sv(134) @ 3695: uvm_test_top.env1.agt.monitor [APB_MONITOR] TRANSFER: ADDR=0x000000c8 WRITE=1 WDATA=0x1000000000000019 RDATA=0x0000000000000000 STRB=0xff PSLVERR=0
UVM_INFO ../tb/apb_scoreboard.sv(501) @ 3695: uvm_test_top.env1.scb [APB_SCB_WRITE] WRITE OK: ADDR=0x000000c8 IDX=25 DATA=0x1000000000000019 STRB=0xff MODEL=0x1000000000000019 VALID_BYTES=0xff
UVM_INFO ../tb/apb_monitor.sv(134) @ 3735: uvm_test_top.env1.agt.monitor [APB_MONITOR] TRANSFER: ADDR=0x000000d0 WRITE=1 WDATA=0x100000000000001a RDATA=0x0000000000000000 STRB=0xff PSLVERR=0
UVM_INFO ../tb/apb_scoreboard.sv(501) @ 3735: uvm_test_top.env1.scb [APB_SCB_WRITE] WRITE OK: ADDR=0x000000d0 IDX=26 DATA=0x100000000000001a STRB=0xff MODEL=0x100000000000001a VALID_BYTES=0xff
UVM_INFO ../tb/apb_monitor.sv(134) @ 3775: uvm_test_top.env1.agt.monitor [APB_MONITOR] TRANSFER: ADDR=0x000000d8 WRITE=1 WDATA=0x100000000000001b RDATA=0x0000000000000000 STRB=0xff PSLVERR=0
UVM_INFO ../tb/apb_scoreboard.sv(501) @ 3775: uvm_test_top.env1.scb [APB_SCB_WRITE] WRITE OK: ADDR=0x000000d8 IDX=27 DATA=0x100000000000001b STRB=0xff MODEL=0x100000000000001b VALID_BYTES=0xff
UVM_INFO ../tb/apb_monitor.sv(134) @ 3815: uvm_test_top.env1.agt.monitor [APB_MONITOR] TRANSFER: ADDR=0x000000e0 WRITE=1 WDATA=0x100000000000001c RDATA=0x0000000000000000 STRB=0xff PSLVERR=0
UVM_INFO ../tb/apb_scoreboard.sv(501) @ 3815: uvm_test_top.env1.scb [APB_SCB_WRITE] WRITE OK: ADDR=0x000000e0 IDX=28 DATA=0x100000000000001c STRB=0xff MODEL=0x100000000000001c VALID_BYTES=0xff
UVM_INFO ../tb/apb_monitor.sv(134) @ 3855: uvm_test_top.env1.agt.monitor [APB_MONITOR] TRANSFER: ADDR=0x000000e8 WRITE=1 WDATA=0x100000000000001d RDATA=0x0000000000000000 STRB=0xff PSLVERR=0
UVM_INFO ../tb/apb_scoreboard.sv(501) @ 3855: uvm_test_top.env1.scb [APB_SCB_WRITE] WRITE OK: ADDR=0x000000e8 IDX=29 DATA=0x100000000000001d STRB=0xff MODEL=0x100000000000001d VALID_BYTES=0xff
UVM_INFO ../tb/apb_monitor.sv(134) @ 3895: uvm_test_top.env1.agt.monitor [APB_MONITOR] TRANSFER: ADDR=0x000000f0 WRITE=1 WDATA=0x100000000000001e RDATA=0x0000000000000000 STRB=0xff PSLVERR=0
UVM_INFO ../tb/apb_scoreboard.sv(501) @ 3895: uvm_test_top.env1.scb [APB_SCB_WRITE] WRITE OK: ADDR=0x000000f0 IDX=30 DATA=0x100000000000001e STRB=0xff MODEL=0x100000000000001e VALID_BYTES=0xff
UVM_INFO ../tb/apb_monitor.sv(134) @ 3935: uvm_test_top.env1.agt.monitor [APB_MONITOR] TRANSFER: ADDR=0x00000000 WRITE=0 WDATA=0x0000000000000000 RDATA=0x1000000000000000 STRB=0x00 PSLVERR=0
UVM_INFO ../tb/apb_scoreboard.sv(587) @ 3935: uvm_test_top.env1.scb [APB_SCB_READ] READ MATCH: ADDR=0x00000000 IDX=0 EXPECTED=0x1000000000000000 ACTUAL=0x1000000000000000 VALID_BYTES=0xff
UVM_INFO ../tb/apb_monitor.sv(134) @ 3975: uvm_test_top.env1.agt.monitor [APB_MONITOR] TRANSFER: ADDR=0x00000008 WRITE=0 WDATA=0x0000000000000000 RDATA=0x1000000000000001 STRB=0x00 PSLVERR=0
UVM_INFO ../tb/apb_scoreboard.sv(587) @ 3975: uvm_test_top.env1.scb [APB_SCB_READ] READ MATCH: ADDR=0x00000008 IDX=1 EXPECTED=0x1000000000000001 ACTUAL=0x1000000000000001 VALID_BYTES=0xff
UVM_INFO ../tb/apb_monitor.sv(134) @ 4015: uvm_test_top.env1.agt.monitor [APB_MONITOR] TRANSFER: ADDR=0x00000010 WRITE=0 WDATA=0x0000000000000000 RDATA=0x1000000000000002 STRB=0x00 PSLVERR=0
UVM_INFO ../tb/apb_scoreboard.sv(587) @ 4015: uvm_test_top.env1.scb [APB_SCB_READ] READ MATCH: ADDR=0x00000010 IDX=2 EXPECTED=0x1000000000000002 ACTUAL=0x1000000000000002 VALID_BYTES=0xff
UVM_INFO ../tb/apb_monitor.sv(134) @ 4055: uvm_test_top.env1.agt.monitor [APB_MONITOR] TRANSFER: ADDR=0x00000018 WRITE=0 WDATA=0x0000000000000000 RDATA=0x1000000000000003 STRB=0x00 PSLVERR=0
UVM_INFO ../tb/apb_scoreboard.sv(587) @ 4055: uvm_test_top.env1.scb [APB_SCB_READ] READ MATCH: ADDR=0x00000018 IDX=3 EXPECTED=0x1000000000000003 ACTUAL=0x1000000000000003 VALID_BYTES=0xff
UVM_INFO ../tb/apb_monitor.sv(134) @ 4095: uvm_test_top.env1.agt.monitor [APB_MONITOR] TRANSFER: ADDR=0x00000020 WRITE=0 WDATA=0x0000000000000000 RDATA=0x1000000000000004 STRB=0x00 PSLVERR=0
UVM_INFO ../tb/apb_scoreboard.sv(587) @ 4095: uvm_test_top.env1.scb [APB_SCB_READ] READ MATCH: ADDR=0x00000020 IDX=4 EXPECTED=0x1000000000000004 ACTUAL=0x1000000000000004 VALID_BYTES=0xff
UVM_INFO ../tb/apb_monitor.sv(134) @ 4135: uvm_test_top.env1.agt.monitor [APB_MONITOR] TRANSFER: ADDR=0x00000028 WRITE=0 WDATA=0x0000000000000000 RDATA=0x1000000000000005 STRB=0x00 PSLVERR=0
UVM_INFO ../tb/apb_scoreboard.sv(587) @ 4135: uvm_test_top.env1.scb [APB_SCB_READ] READ MATCH: ADDR=0x00000028 IDX=5 EXPECTED=0x1000000000000005 ACTUAL=0x1000000000000005 VALID_BYTES=0xff
UVM_INFO ../tb/apb_monitor.sv(134) @ 4175: uvm_test_top.env1.agt.monitor [APB_MONITOR] TRANSFER: ADDR=0x00000030 WRITE=0 WDATA=0x0000000000000000 RDATA=0x1000000000000006 STRB=0x00 PSLVERR=0
UVM_INFO ../tb/apb_scoreboard.sv(587) @ 4175: uvm_test_top.env1.scb [APB_SCB_READ] READ MATCH: ADDR=0x00000030 IDX=6 EXPECTED=0x1000000000000006 ACTUAL=0x1000000000000006 VALID_BYTES=0xff
UVM_INFO ../tb/apb_monitor.sv(134) @ 4215: uvm_test_top.env1.agt.monitor [APB_MONITOR] TRANSFER: ADDR=0x00000038 WRITE=0 WDATA=0x0000000000000000 RDATA=0x1000000000000007 STRB=0x00 PSLVERR=0
UVM_INFO ../tb/apb_scoreboard.sv(587) @ 4215: uvm_test_top.env1.scb [APB_SCB_READ] READ MATCH: ADDR=0x00000038 IDX=7 EXPECTED=0x1000000000000007 ACTUAL=0x1000000000000007 VALID_BYTES=0xff
UVM_INFO ../tb/apb_monitor.sv(134) @ 4255: uvm_test_top.env1.agt.monitor [APB_MONITOR] TRANSFER: ADDR=0x00000040 WRITE=0 WDATA=0x0000000000000000 RDATA=0x1000000000000008 STRB=0x00 PSLVERR=0
UVM_INFO ../tb/apb_scoreboard.sv(587) @ 4255: uvm_test_top.env1.scb [APB_SCB_READ] READ MATCH: ADDR=0x00000040 IDX=8 EXPECTED=0x1000000000000008 ACTUAL=0x1000000000000008 VALID_BYTES=0xff
UVM_INFO ../tb/apb_monitor.sv(134) @ 4295: uvm_test_top.env1.agt.monitor [APB_MONITOR] TRANSFER: ADDR=0x00000048 WRITE=0 WDATA=0x0000000000000000 RDATA=0x1000000000000009 STRB=0x00 PSLVERR=0
UVM_INFO ../tb/apb_scoreboard.sv(587) @ 4295: uvm_test_top.env1.scb [APB_SCB_READ] READ MATCH: ADDR=0x00000048 IDX=9 EXPECTED=0x1000000000000009 ACTUAL=0x1000000000000009 VALID_BYTES=0xff
UVM_INFO ../tb/apb_monitor.sv(134) @ 4335: uvm_test_top.env1.agt.monitor [APB_MONITOR] TRANSFER: ADDR=0x00000050 WRITE=0 WDATA=0x0000000000000000 RDATA=0x100000000000000a STRB=0x00 PSLVERR=0
UVM_INFO ../tb/apb_scoreboard.sv(587) @ 4335: uvm_test_top.env1.scb [APB_SCB_READ] READ MATCH: ADDR=0x00000050 IDX=10 EXPECTED=0x100000000000000a ACTUAL=0x100000000000000a VALID_BYTES=0xff
UVM_INFO ../tb/apb_monitor.sv(134) @ 4375: uvm_test_top.env1.agt.monitor [APB_MONITOR] TRANSFER: ADDR=0x00000058 WRITE=0 WDATA=0x0000000000000000 RDATA=0x100000000000000b STRB=0x00 PSLVERR=0
UVM_INFO ../tb/apb_scoreboard.sv(587) @ 4375: uvm_test_top.env1.scb [APB_SCB_READ] READ MATCH: ADDR=0x00000058 IDX=11 EXPECTED=0x100000000000000b ACTUAL=0x100000000000000b VALID_BYTES=0xff
UVM_INFO ../tb/apb_monitor.sv(134) @ 4415: uvm_test_top.env1.agt.monitor [APB_MONITOR] TRANSFER: ADDR=0x00000060 WRITE=0 WDATA=0x0000000000000000 RDATA=0x100000000000000c STRB=0x00 PSLVERR=0
UVM_INFO ../tb/apb_scoreboard.sv(587) @ 4415: uvm_test_top.env1.scb [APB_SCB_READ] READ MATCH: ADDR=0x00000060 IDX=12 EXPECTED=0x100000000000000c ACTUAL=0x100000000000000c VALID_BYTES=0xff
UVM_INFO ../tb/apb_monitor.sv(134) @ 4455: uvm_test_top.env1.agt.monitor [APB_MONITOR] TRANSFER: ADDR=0x00000068 WRITE=0 WDATA=0x0000000000000000 RDATA=0x100000000000000d STRB=0x00 PSLVERR=0
UVM_INFO ../tb/apb_scoreboard.sv(587) @ 4455: uvm_test_top.env1.scb [APB_SCB_READ] READ MATCH: ADDR=0x00000068 IDX=13 EXPECTED=0x100000000000000d ACTUAL=0x100000000000000d VALID_BYTES=0xff
UVM_INFO ../tb/apb_monitor.sv(134) @ 4495: uvm_test_top.env1.agt.monitor [APB_MONITOR] TRANSFER: ADDR=0x00000070 WRITE=0 WDATA=0x0000000000000000 RDATA=0x100000000000000e STRB=0x00 PSLVERR=0
UVM_INFO ../tb/apb_scoreboard.sv(587) @ 4495: uvm_test_top.env1.scb [APB_SCB_READ] READ MATCH: ADDR=0x00000070 IDX=14 EXPECTED=0x100000000000000e ACTUAL=0x100000000000000e VALID_BYTES=0xff
UVM_INFO ../tb/apb_monitor.sv(134) @ 4535: uvm_test_top.env1.agt.monitor [APB_MONITOR] TRANSFER: ADDR=0x00000078 WRITE=0 WDATA=0x0000000000000000 RDATA=0x100000000000000f STRB=0x00 PSLVERR=0
UVM_INFO ../tb/apb_scoreboard.sv(587) @ 4535: uvm_test_top.env1.scb [APB_SCB_READ] READ MATCH: ADDR=0x00000078 IDX=15 EXPECTED=0x100000000000000f ACTUAL=0x100000000000000f VALID_BYTES=0xff
UVM_INFO ../tb/apb_monitor.sv(134) @ 4575: uvm_test_top.env1.agt.monitor [APB_MONITOR] TRANSFER: ADDR=0x00000080 WRITE=0 WDATA=0x0000000000000000 RDATA=0x1000000000000010 STRB=0x00 PSLVERR=0
UVM_INFO ../tb/apb_scoreboard.sv(587) @ 4575: uvm_test_top.env1.scb [APB_SCB_READ] READ MATCH: ADDR=0x00000080 IDX=16 EXPECTED=0x1000000000000010 ACTUAL=0x1000000000000010 VALID_BYTES=0xff
UVM_INFO ../tb/apb_monitor.sv(134) @ 4615: uvm_test_top.env1.agt.monitor [APB_MONITOR] TRANSFER: ADDR=0x00000088 WRITE=0 WDATA=0x0000000000000000 RDATA=0x1000000000000011 STRB=0x00 PSLVERR=0
UVM_INFO ../tb/apb_scoreboard.sv(587) @ 4615: uvm_test_top.env1.scb [APB_SCB_READ] READ MATCH: ADDR=0x00000088 IDX=17 EXPECTED=0x1000000000000011 ACTUAL=0x1000000000000011 VALID_BYTES=0xff
UVM_INFO ../tb/apb_monitor.sv(134) @ 4655: uvm_test_top.env1.agt.monitor [APB_MONITOR] TRANSFER: ADDR=0x00000090 WRITE=0 WDATA=0x0000000000000000 RDATA=0x1000000000000012 STRB=0x00 PSLVERR=0
UVM_INFO ../tb/apb_scoreboard.sv(587) @ 4655: uvm_test_top.env1.scb [APB_SCB_READ] READ MATCH: ADDR=0x00000090 IDX=18 EXPECTED=0x1000000000000012 ACTUAL=0x1000000000000012 VALID_BYTES=0xff
UVM_INFO ../tb/apb_monitor.sv(134) @ 4695: uvm_test_top.env1.agt.monitor [APB_MONITOR] TRANSFER: ADDR=0x00000098 WRITE=0 WDATA=0x0000000000000000 RDATA=0x1000000000000013 STRB=0x00 PSLVERR=0
UVM_INFO ../tb/apb_scoreboard.sv(587) @ 4695: uvm_test_top.env1.scb [APB_SCB_READ] READ MATCH: ADDR=0x00000098 IDX=19 EXPECTED=0x1000000000000013 ACTUAL=0x1000000000000013 VALID_BYTES=0xff
UVM_INFO ../tb/apb_monitor.sv(134) @ 4735: uvm_test_top.env1.agt.monitor [APB_MONITOR] TRANSFER: ADDR=0x000000a0 WRITE=0 WDATA=0x0000000000000000 RDATA=0x1000000000000014 STRB=0x00 PSLVERR=0
UVM_INFO ../tb/apb_scoreboard.sv(587) @ 4735: uvm_test_top.env1.scb [APB_SCB_READ] READ MATCH: ADDR=0x000000a0 IDX=20 EXPECTED=0x1000000000000014 ACTUAL=0x1000000000000014 VALID_BYTES=0xff
UVM_INFO ../tb/apb_monitor.sv(134) @ 4775: uvm_test_top.env1.agt.monitor [APB_MONITOR] TRANSFER: ADDR=0x000000a8 WRITE=0 WDATA=0x0000000000000000 RDATA=0x1000000000000015 STRB=0x00 PSLVERR=0
UVM_INFO ../tb/apb_scoreboard.sv(587) @ 4775: uvm_test_top.env1.scb [APB_SCB_READ] READ MATCH: ADDR=0x000000a8 IDX=21 EXPECTED=0x1000000000000015 ACTUAL=0x1000000000000015 VALID_BYTES=0xff
UVM_INFO ../tb/apb_monitor.sv(134) @ 4815: uvm_test_top.env1.agt.monitor [APB_MONITOR] TRANSFER: ADDR=0x000000b0 WRITE=0 WDATA=0x0000000000000000 RDATA=0x1000000000000016 STRB=0x00 PSLVERR=0
UVM_INFO ../tb/apb_scoreboard.sv(587) @ 4815: uvm_test_top.env1.scb [APB_SCB_READ] READ MATCH: ADDR=0x000000b0 IDX=22 EXPECTED=0x1000000000000016 ACTUAL=0x1000000000000016 VALID_BYTES=0xff
UVM_INFO ../tb/apb_monitor.sv(134) @ 4855: uvm_test_top.env1.agt.monitor [APB_MONITOR] TRANSFER: ADDR=0x000000b8 WRITE=0 WDATA=0x0000000000000000 RDATA=0x1000000000000017 STRB=0x00 PSLVERR=0
UVM_INFO ../tb/apb_scoreboard.sv(587) @ 4855: uvm_test_top.env1.scb [APB_SCB_READ] READ MATCH: ADDR=0x000000b8 IDX=23 EXPECTED=0x1000000000000017 ACTUAL=0x1000000000000017 VALID_BYTES=0xff
UVM_INFO ../tb/apb_monitor.sv(134) @ 4895: uvm_test_top.env1.agt.monitor [APB_MONITOR] TRANSFER: ADDR=0x000000c0 WRITE=0 WDATA=0x0000000000000000 RDATA=0x1000000000000018 STRB=0x00 PSLVERR=0
UVM_INFO ../tb/apb_scoreboard.sv(587) @ 4895: uvm_test_top.env1.scb [APB_SCB_READ] READ MATCH: ADDR=0x000000c0 IDX=24 EXPECTED=0x1000000000000018 ACTUAL=0x1000000000000018 VALID_BYTES=0xff
UVM_INFO ../tb/apb_monitor.sv(134) @ 4935: uvm_test_top.env1.agt.monitor [APB_MONITOR] TRANSFER: ADDR=0x000000c8 WRITE=0 WDATA=0x0000000000000000 RDATA=0x1000000000000019 STRB=0x00 PSLVERR=0
UVM_INFO ../tb/apb_scoreboard.sv(587) @ 4935: uvm_test_top.env1.scb [APB_SCB_READ] READ MATCH: ADDR=0x000000c8 IDX=25 EXPECTED=0x1000000000000019 ACTUAL=0x1000000000000019 VALID_BYTES=0xff
UVM_INFO ../tb/apb_monitor.sv(134) @ 4975: uvm_test_top.env1.agt.monitor [APB_MONITOR] TRANSFER: ADDR=0x000000d0 WRITE=0 WDATA=0x0000000000000000 RDATA=0x100000000000001a STRB=0x00 PSLVERR=0
UVM_INFO ../tb/apb_scoreboard.sv(587) @ 4975: uvm_test_top.env1.scb [APB_SCB_READ] READ MATCH: ADDR=0x000000d0 IDX=26 EXPECTED=0x100000000000001a ACTUAL=0x100000000000001a VALID_BYTES=0xff
UVM_INFO ../tb/apb_monitor.sv(134) @ 5015: uvm_test_top.env1.agt.monitor [APB_MONITOR] TRANSFER: ADDR=0x000000d8 WRITE=0 WDATA=0x0000000000000000 RDATA=0x100000000000001b STRB=0x00 PSLVERR=0
UVM_INFO ../tb/apb_scoreboard.sv(587) @ 5015: uvm_test_top.env1.scb [APB_SCB_READ] READ MATCH: ADDR=0x000000d8 IDX=27 EXPECTED=0x100000000000001b ACTUAL=0x100000000000001b VALID_BYTES=0xff
UVM_INFO ../tb/apb_monitor.sv(134) @ 5055: uvm_test_top.env1.agt.monitor [APB_MONITOR] TRANSFER: ADDR=0x000000e0 WRITE=0 WDATA=0x0000000000000000 RDATA=0x100000000000001c STRB=0x00 PSLVERR=0
UVM_INFO ../tb/apb_scoreboard.sv(587) @ 5055: uvm_test_top.env1.scb [APB_SCB_READ] READ MATCH: ADDR=0x000000e0 IDX=28 EXPECTED=0x100000000000001c ACTUAL=0x100000000000001c VALID_BYTES=0xff
UVM_INFO ../tb/apb_monitor.sv(134) @ 5095: uvm_test_top.env1.agt.monitor [APB_MONITOR] TRANSFER: ADDR=0x000000e8 WRITE=0 WDATA=0x0000000000000000 RDATA=0x100000000000001d STRB=0x00 PSLVERR=0
UVM_INFO ../tb/apb_scoreboard.sv(587) @ 5095: uvm_test_top.env1.scb [APB_SCB_READ] READ MATCH: ADDR=0x000000e8 IDX=29 EXPECTED=0x100000000000001d ACTUAL=0x100000000000001d VALID_BYTES=0xff
UVM_INFO ../tb/apb_monitor.sv(134) @ 5135: uvm_test_top.env1.agt.monitor [APB_MONITOR] TRANSFER: ADDR=0x000000f0 WRITE=0 WDATA=0x0000000000000000 RDATA=0x100000000000001e STRB=0x00 PSLVERR=0
UVM_INFO ../tb/apb_scoreboard.sv(587) @ 5135: uvm_test_top.env1.scb [APB_SCB_READ] READ MATCH: ADDR=0x000000f0 IDX=30 EXPECTED=0x100000000000001e ACTUAL=0x100000000000001e VALID_BYTES=0xff
UVM_INFO ../tb/apb_sequence.sv(314) @ 5136: uvm_test_top.env1.agt.seq1@@successive_seq_r0 [apb_successive_wr_sequence] Successive Write/Read Sequence Finished
UVM_INFO ../tb/test.sv(1358) @ 5136: uvm_test_top [STRESS_TEST] Running apb_slave_error_aor_sequence
UVM_INFO ../tb/apb_monitor.sv(134) @ 5175: uvm_test_top.env1.agt.monitor [APB_MONITOR] TRANSFER: ADDR=0x00010000 WRITE=1 WDATA=0xaaaabbbbccccdddd RDATA=0x0000000000000000 STRB=0xff PSLVERR=1
UVM_INFO ../tb/apb_monitor.sv(134) @ 5215: uvm_test_top.env1.agt.monitor [APB_MONITOR] TRANSFER: ADDR=0x00010000 WRITE=0 WDATA=0x0000000000000000 RDATA=0x1000000000000000 STRB=0x00 PSLVERR=1
UVM_INFO ../tb/apb_monitor.sv(134) @ 5255: uvm_test_top.env1.agt.monitor [APB_MONITOR] TRANSFER: ADDR=0x00010008 WRITE=1 WDATA=0x1111222233334444 RDATA=0x0000000000000000 STRB=0xff PSLVERR=1
UVM_INFO ../tb/apb_monitor.sv(134) @ 5295: uvm_test_top.env1.agt.monitor [APB_MONITOR] TRANSFER: ADDR=0x00010008 WRITE=0 WDATA=0x0000000000000000 RDATA=0x1000000000000001 STRB=0x00 PSLVERR=1
UVM_INFO ../tb/apb_monitor.sv(134) @ 5335: uvm_test_top.env1.agt.monitor [APB_MONITOR] TRANSFER: ADDR=0x00020000 WRITE=1 WDATA=0xaaaa000000000011 RDATA=0x0000000000000000 STRB=0xff PSLVERR=1
UVM_INFO ../tb/apb_monitor.sv(134) @ 5375: uvm_test_top.env1.agt.monitor [APB_MONITOR] TRANSFER: ADDR=0x00020000 WRITE=0 WDATA=0x0000000000000000 RDATA=0x1000000000000000 STRB=0x00 PSLVERR=1
UVM_INFO ../tb/apb_monitor.sv(134) @ 5415: uvm_test_top.env1.agt.monitor [APB_MONITOR] TRANSFER: ADDR=0x00040000 WRITE=1 WDATA=0xaaaa000000000012 RDATA=0x0000000000000000 STRB=0xff PSLVERR=1
UVM_INFO ../tb/apb_monitor.sv(134) @ 5455: uvm_test_top.env1.agt.monitor [APB_MONITOR] TRANSFER: ADDR=0x00040000 WRITE=0 WDATA=0x0000000000000000 RDATA=0x1000000000000000 STRB=0x00 PSLVERR=1
UVM_INFO ../tb/apb_monitor.sv(134) @ 5495: uvm_test_top.env1.agt.monitor [APB_MONITOR] TRANSFER: ADDR=0x00080000 WRITE=1 WDATA=0xaaaa000000000013 RDATA=0x0000000000000000 STRB=0xff PSLVERR=1
UVM_INFO ../tb/apb_monitor.sv(134) @ 5535: uvm_test_top.env1.agt.monitor [APB_MONITOR] TRANSFER: ADDR=0x00080000 WRITE=0 WDATA=0x0000000000000000 RDATA=0x1000000000000000 STRB=0x00 PSLVERR=1
UVM_INFO ../tb/apb_monitor.sv(134) @ 5575: uvm_test_top.env1.agt.monitor [APB_MONITOR] TRANSFER: ADDR=0x00100000 WRITE=1 WDATA=0xaaaa000000000014 RDATA=0x0000000000000000 STRB=0xff PSLVERR=1
UVM_INFO ../tb/apb_monitor.sv(134) @ 5615: uvm_test_top.env1.agt.monitor [APB_MONITOR] TRANSFER: ADDR=0x00100000 WRITE=0 WDATA=0x0000000000000000 RDATA=0x1000000000000000 STRB=0x00 PSLVERR=1
UVM_INFO ../tb/apb_monitor.sv(134) @ 5655: uvm_test_top.env1.agt.monitor [APB_MONITOR] TRANSFER: ADDR=0x00200000 WRITE=1 WDATA=0xaaaa000000000015 RDATA=0x0000000000000000 STRB=0xff PSLVERR=1
UVM_INFO ../tb/apb_monitor.sv(134) @ 5695: uvm_test_top.env1.agt.monitor [APB_MONITOR] TRANSFER: ADDR=0x00200000 WRITE=0 WDATA=0x0000000000000000 RDATA=0x1000000000000000 STRB=0x00 PSLVERR=1
UVM_INFO ../tb/apb_monitor.sv(134) @ 5735: uvm_test_top.env1.agt.monitor [APB_MONITOR] TRANSFER: ADDR=0x00400000 WRITE=1 WDATA=0xaaaa000000000016 RDATA=0x0000000000000000 STRB=0xff PSLVERR=1
UVM_INFO ../tb/apb_monitor.sv(134) @ 5775: uvm_test_top.env1.agt.monitor [APB_MONITOR] TRANSFER: ADDR=0x00400000 WRITE=0 WDATA=0x0000000000000000 RDATA=0x1000000000000000 STRB=0x00 PSLVERR=1
UVM_INFO ../tb/apb_monitor.sv(134) @ 5815: uvm_test_top.env1.agt.monitor [APB_MONITOR] TRANSFER: ADDR=0x00800000 WRITE=1 WDATA=0xaaaa000000000017 RDATA=0x0000000000000000 STRB=0xff PSLVERR=1
UVM_INFO ../tb/apb_monitor.sv(134) @ 5855: uvm_test_top.env1.agt.monitor [APB_MONITOR] TRANSFER: ADDR=0x00800000 WRITE=0 WDATA=0x0000000000000000 RDATA=0x1000000000000000 STRB=0x00 PSLVERR=1
UVM_INFO ../tb/apb_monitor.sv(134) @ 5895: uvm_test_top.env1.agt.monitor [APB_MONITOR] TRANSFER: ADDR=0x01000000 WRITE=1 WDATA=0xaaaa000000000018 RDATA=0x0000000000000000 STRB=0xff PSLVERR=1
UVM_INFO ../tb/apb_monitor.sv(134) @ 5935: uvm_test_top.env1.agt.monitor [APB_MONITOR] TRANSFER: ADDR=0x01000000 WRITE=0 WDATA=0x0000000000000000 RDATA=0x1000000000000000 STRB=0x00 PSLVERR=1
UVM_INFO ../tb/apb_monitor.sv(134) @ 5975: uvm_test_top.env1.agt.monitor [APB_MONITOR] TRANSFER: ADDR=0x02000000 WRITE=1 WDATA=0xaaaa000000000019 RDATA=0x0000000000000000 STRB=0xff PSLVERR=1
UVM_INFO ../tb/apb_monitor.sv(134) @ 6015: uvm_test_top.env1.agt.monitor [APB_MONITOR] TRANSFER: ADDR=0x02000000 WRITE=0 WDATA=0x0000000000000000 RDATA=0x1000000000000000 STRB=0x00 PSLVERR=1
UVM_INFO ../tb/apb_monitor.sv(134) @ 6055: uvm_test_top.env1.agt.monitor [APB_MONITOR] TRANSFER: ADDR=0x04000000 WRITE=1 WDATA=0xaaaa00000000001a RDATA=0x0000000000000000 STRB=0xff PSLVERR=1
UVM_INFO ../tb/apb_monitor.sv(134) @ 6095: uvm_test_top.env1.agt.monitor [APB_MONITOR] TRANSFER: ADDR=0x04000000 WRITE=0 WDATA=0x0000000000000000 RDATA=0x1000000000000000 STRB=0x00 PSLVERR=1
UVM_INFO ../tb/apb_monitor.sv(134) @ 6135: uvm_test_top.env1.agt.monitor [APB_MONITOR] TRANSFER: ADDR=0x08000000 WRITE=1 WDATA=0xaaaa00000000001b RDATA=0x0000000000000000 STRB=0xff PSLVERR=1
UVM_INFO ../tb/apb_monitor.sv(134) @ 6175: uvm_test_top.env1.agt.monitor [APB_MONITOR] TRANSFER: ADDR=0x08000000 WRITE=0 WDATA=0x0000000000000000 RDATA=0x1000000000000000 STRB=0x00 PSLVERR=1
UVM_INFO ../tb/apb_monitor.sv(134) @ 6215: uvm_test_top.env1.agt.monitor [APB_MONITOR] TRANSFER: ADDR=0x10000000 WRITE=1 WDATA=0xaaaa00000000001c RDATA=0x0000000000000000 STRB=0xff PSLVERR=1
UVM_INFO ../tb/apb_monitor.sv(134) @ 6255: uvm_test_top.env1.agt.monitor [APB_MONITOR] TRANSFER: ADDR=0x10000000 WRITE=0 WDATA=0x0000000000000000 RDATA=0x1000000000000000 STRB=0x00 PSLVERR=1
UVM_INFO ../tb/apb_monitor.sv(134) @ 6295: uvm_test_top.env1.agt.monitor [APB_MONITOR] TRANSFER: ADDR=0x20000000 WRITE=1 WDATA=0xaaaa00000000001d RDATA=0x0000000000000000 STRB=0xff PSLVERR=1
UVM_INFO ../tb/apb_monitor.sv(134) @ 6335: uvm_test_top.env1.agt.monitor [APB_MONITOR] TRANSFER: ADDR=0x20000000 WRITE=0 WDATA=0x0000000000000000 RDATA=0x1000000000000000 STRB=0x00 PSLVERR=1
UVM_INFO ../tb/apb_monitor.sv(134) @ 6375: uvm_test_top.env1.agt.monitor [APB_MONITOR] TRANSFER: ADDR=0x40000000 WRITE=1 WDATA=0xaaaa00000000001e RDATA=0x0000000000000000 STRB=0xff PSLVERR=1
UVM_INFO ../tb/apb_monitor.sv(134) @ 6415: uvm_test_top.env1.agt.monitor [APB_MONITOR] TRANSFER: ADDR=0x40000000 WRITE=0 WDATA=0x0000000000000000 RDATA=0x1000000000000000 STRB=0x00 PSLVERR=1
UVM_INFO ../tb/apb_monitor.sv(134) @ 6455: uvm_test_top.env1.agt.monitor [APB_MONITOR] TRANSFER: ADDR=0x80000000 WRITE=1 WDATA=0xaaaa00000000001f RDATA=0x0000000000000000 STRB=0xff PSLVERR=1
UVM_INFO ../tb/apb_monitor.sv(134) @ 6495: uvm_test_top.env1.agt.monitor [APB_MONITOR] TRANSFER: ADDR=0x80000000 WRITE=0 WDATA=0x0000000000000000 RDATA=0x1000000000000000 STRB=0x00 PSLVERR=1
UVM_INFO ../tb/test.sv(1390) @ 6496: uvm_test_top [STRESS_TEST] Running apb_random_addr_wr_sequence
UVM_INFO ../tb/apb_monitor.sv(134) @ 6535: uvm_test_top.env1.agt.monitor [APB_MONITOR] TRANSFER: ADDR=0x0000e350 WRITE=1 WDATA=0xcc9293a8c24b8a49 RDATA=0x0000000000000000 STRB=0xff PSLVERR=0
UVM_INFO ../tb/apb_scoreboard.sv(501) @ 6535: uvm_test_top.env1.scb [APB_SCB_WRITE] WRITE OK: ADDR=0x0000e350 IDX=7274 DATA=0xcc9293a8c24b8a49 STRB=0xff MODEL=0xcc9293a8c24b8a49 VALID_BYTES=0xff
UVM_INFO ../tb/apb_monitor.sv(134) @ 6575: uvm_test_top.env1.agt.monitor [APB_MONITOR] TRANSFER: ADDR=0x0000e350 WRITE=0 WDATA=0x0000000000000000 RDATA=0xcc9293a8c24b8a49 STRB=0x00 PSLVERR=0
UVM_INFO ../tb/apb_scoreboard.sv(587) @ 6575: uvm_test_top.env1.scb [APB_SCB_READ] READ MATCH: ADDR=0x0000e350 IDX=7274 EXPECTED=0xcc9293a8c24b8a49 ACTUAL=0xcc9293a8c24b8a49 VALID_BYTES=0xff
UVM_INFO ../tb/apb_monitor.sv(134) @ 6615: uvm_test_top.env1.agt.monitor [APB_MONITOR] TRANSFER: ADDR=0x0000b8f8 WRITE=1 WDATA=0xcae06419d3369ade RDATA=0x0000000000000000 STRB=0xff PSLVERR=0
UVM_INFO ../tb/apb_scoreboard.sv(501) @ 6615: uvm_test_top.env1.scb [APB_SCB_WRITE] WRITE OK: ADDR=0x0000b8f8 IDX=5919 DATA=0xcae06419d3369ade STRB=0xff MODEL=0xcae06419d3369ade VALID_BYTES=0xff
UVM_INFO ../tb/apb_monitor.sv(134) @ 6655: uvm_test_top.env1.agt.monitor [APB_MONITOR] TRANSFER: ADDR=0x0000b8f8 WRITE=0 WDATA=0x0000000000000000 RDATA=0xcae06419d3369ade STRB=0x00 PSLVERR=0
UVM_INFO ../tb/apb_scoreboard.sv(587) @ 6655: uvm_test_top.env1.scb [APB_SCB_READ] READ MATCH: ADDR=0x0000b8f8 IDX=5919 EXPECTED=0xcae06419d3369ade ACTUAL=0xcae06419d3369ade VALID_BYTES=0xff
UVM_INFO ../tb/apb_monitor.sv(134) @ 6695: uvm_test_top.env1.agt.monitor [APB_MONITOR] TRANSFER: ADDR=0x0000a970 WRITE=1 WDATA=0xa53ebc36bcac4080 RDATA=0x0000000000000000 STRB=0xff PSLVERR=0
UVM_INFO ../tb/apb_scoreboard.sv(501) @ 6695: uvm_test_top.env1.scb [APB_SCB_WRITE] WRITE OK: ADDR=0x0000a970 IDX=5422 DATA=0xa53ebc36bcac4080 STRB=0xff MODEL=0xa53ebc36bcac4080 VALID_BYTES=0xff
UVM_INFO ../tb/apb_monitor.sv(134) @ 6735: uvm_test_top.env1.agt.monitor [APB_MONITOR] TRANSFER: ADDR=0x0000a970 WRITE=0 WDATA=0x0000000000000000 RDATA=0xa53ebc36bcac4080 STRB=0x00 PSLVERR=0
UVM_INFO ../tb/apb_scoreboard.sv(587) @ 6735: uvm_test_top.env1.scb [APB_SCB_READ] READ MATCH: ADDR=0x0000a970 IDX=5422 EXPECTED=0xa53ebc36bcac4080 ACTUAL=0xa53ebc36bcac4080 VALID_BYTES=0xff
UVM_INFO ../tb/apb_monitor.sv(134) @ 6775: uvm_test_top.env1.agt.monitor [APB_MONITOR] TRANSFER: ADDR=0x000093f0 WRITE=1 WDATA=0x437d78259653570b RDATA=0x0000000000000000 STRB=0xff PSLVERR=0
UVM_INFO ../tb/apb_scoreboard.sv(501) @ 6775: uvm_test_top.env1.scb [APB_SCB_WRITE] WRITE OK: ADDR=0x000093f0 IDX=4734 DATA=0x437d78259653570b STRB=0xff MODEL=0x437d78259653570b VALID_BYTES=0xff
UVM_INFO ../tb/apb_monitor.sv(134) @ 6815: uvm_test_top.env1.agt.monitor [APB_MONITOR] TRANSFER: ADDR=0x000093f0 WRITE=0 WDATA=0x0000000000000000 RDATA=0x437d78259653570b STRB=0x00 PSLVERR=0
UVM_INFO ../tb/apb_scoreboard.sv(587) @ 6815: uvm_test_top.env1.scb [APB_SCB_READ] READ MATCH: ADDR=0x000093f0 IDX=4734 EXPECTED=0x437d78259653570b ACTUAL=0x437d78259653570b VALID_BYTES=0xff
UVM_INFO ../tb/apb_monitor.sv(134) @ 6855: uvm_test_top.env1.agt.monitor [APB_MONITOR] TRANSFER: ADDR=0x0000ffb0 WRITE=1 WDATA=0x8df8a26c9950f660 RDATA=0x0000000000000000 STRB=0xff PSLVERR=0
UVM_INFO ../tb/apb_scoreboard.sv(501) @ 6855: uvm_test_top.env1.scb [APB_SCB_WRITE] WRITE OK: ADDR=0x0000ffb0 IDX=8182 DATA=0x8df8a26c9950f660 STRB=0xff MODEL=0x8df8a26c9950f660 VALID_BYTES=0xff
UVM_INFO ../tb/apb_monitor.sv(134) @ 6895: uvm_test_top.env1.agt.monitor [APB_MONITOR] TRANSFER: ADDR=0x0000ffb0 WRITE=0 WDATA=0x0000000000000000 RDATA=0x8df8a26c9950f660 STRB=0x00 PSLVERR=0
UVM_INFO ../tb/apb_scoreboard.sv(587) @ 6895: uvm_test_top.env1.scb [APB_SCB_READ] READ MATCH: ADDR=0x0000ffb0 IDX=8182 EXPECTED=0x8df8a26c9950f660 ACTUAL=0x8df8a26c9950f660 VALID_BYTES=0xff
UVM_INFO ../tb/apb_monitor.sv(134) @ 6935: uvm_test_top.env1.agt.monitor [APB_MONITOR] TRANSFER: ADDR=0x00004a18 WRITE=1 WDATA=0x869bbffaa14eb842 RDATA=0x0000000000000000 STRB=0xff PSLVERR=0
UVM_INFO ../tb/apb_scoreboard.sv(501) @ 6935: uvm_test_top.env1.scb [APB_SCB_WRITE] WRITE OK: ADDR=0x00004a18 IDX=2371 DATA=0x869bbffaa14eb842 STRB=0xff MODEL=0x869bbffaa14eb842 VALID_BYTES=0xff
UVM_INFO ../tb/apb_monitor.sv(134) @ 6975: uvm_test_top.env1.agt.monitor [APB_MONITOR] TRANSFER: ADDR=0x00004a18 WRITE=0 WDATA=0x0000000000000000 RDATA=0x869bbffaa14eb842 STRB=0x00 PSLVERR=0
UVM_INFO ../tb/apb_scoreboard.sv(587) @ 6975: uvm_test_top.env1.scb [APB_SCB_READ] READ MATCH: ADDR=0x00004a18 IDX=2371 EXPECTED=0x869bbffaa14eb842 ACTUAL=0x869bbffaa14eb842 VALID_BYTES=0xff
UVM_INFO ../tb/apb_monitor.sv(134) @ 7015: uvm_test_top.env1.agt.monitor [APB_MONITOR] TRANSFER: ADDR=0x0000de08 WRITE=1 WDATA=0xc7d5c139aa7676eb RDATA=0x0000000000000000 STRB=0xff PSLVERR=0
UVM_INFO ../tb/apb_scoreboard.sv(501) @ 7015: uvm_test_top.env1.scb [APB_SCB_WRITE] WRITE OK: ADDR=0x0000de08 IDX=7105 DATA=0xc7d5c139aa7676eb STRB=0xff MODEL=0xc7d5c139aa7676eb VALID_BYTES=0xff
UVM_INFO ../tb/apb_monitor.sv(134) @ 7055: uvm_test_top.env1.agt.monitor [APB_MONITOR] TRANSFER: ADDR=0x0000de08 WRITE=0 WDATA=0x0000000000000000 RDATA=0xc7d5c139aa7676eb STRB=0x00 PSLVERR=0
UVM_INFO ../tb/apb_scoreboard.sv(587) @ 7055: uvm_test_top.env1.scb [APB_SCB_READ] READ MATCH: ADDR=0x0000de08 IDX=7105 EXPECTED=0xc7d5c139aa7676eb ACTUAL=0xc7d5c139aa7676eb VALID_BYTES=0xff
UVM_INFO ../tb/apb_monitor.sv(134) @ 7095: uvm_test_top.env1.agt.monitor [APB_MONITOR] TRANSFER: ADDR=0x000021b0 WRITE=1 WDATA=0x1e7571d7a678c849 RDATA=0x0000000000000000 STRB=0xff PSLVERR=0
UVM_INFO ../tb/apb_scoreboard.sv(501) @ 7095: uvm_test_top.env1.scb [APB_SCB_WRITE] WRITE OK: ADDR=0x000021b0 IDX=1078 DATA=0x1e7571d7a678c849 STRB=0xff MODEL=0x1e7571d7a678c849 VALID_BYTES=0xff
UVM_INFO ../tb/apb_monitor.sv(134) @ 7135: uvm_test_top.env1.agt.monitor [APB_MONITOR] TRANSFER: ADDR=0x000021b0 WRITE=0 WDATA=0x0000000000000000 RDATA=0x1e7571d7a678c849 STRB=0x00 PSLVERR=0
UVM_INFO ../tb/apb_scoreboard.sv(587) @ 7135: uvm_test_top.env1.scb [APB_SCB_READ] READ MATCH: ADDR=0x000021b0 IDX=1078 EXPECTED=0x1e7571d7a678c849 ACTUAL=0x1e7571d7a678c849 VALID_BYTES=0xff
UVM_INFO ../tb/apb_monitor.sv(134) @ 7175: uvm_test_top.env1.agt.monitor [APB_MONITOR] TRANSFER: ADDR=0x00009b10 WRITE=1 WDATA=0x8a016eef5192f5e3 RDATA=0x0000000000000000 STRB=0xff PSLVERR=0
UVM_INFO ../tb/apb_scoreboard.sv(501) @ 7175: uvm_test_top.env1.scb [APB_SCB_WRITE] WRITE OK: ADDR=0x00009b10 IDX=4962 DATA=0x8a016eef5192f5e3 STRB=0xff MODEL=0x8a016eef5192f5e3 VALID_BYTES=0xff
UVM_INFO ../tb/apb_monitor.sv(134) @ 7215: uvm_test_top.env1.agt.monitor [APB_MONITOR] TRANSFER: ADDR=0x00009b10 WRITE=0 WDATA=0x0000000000000000 RDATA=0x8a016eef5192f5e3 STRB=0x00 PSLVERR=0
UVM_INFO ../tb/apb_scoreboard.sv(587) @ 7215: uvm_test_top.env1.scb [APB_SCB_READ] READ MATCH: ADDR=0x00009b10 IDX=4962 EXPECTED=0x8a016eef5192f5e3 ACTUAL=0x8a016eef5192f5e3 VALID_BYTES=0xff
UVM_INFO ../tb/apb_monitor.sv(134) @ 7255: uvm_test_top.env1.agt.monitor [APB_MONITOR] TRANSFER: ADDR=0x00008818 WRITE=1 WDATA=0xd825a40207a112bf RDATA=0x0000000000000000 STRB=0xff PSLVERR=0
UVM_INFO ../tb/apb_scoreboard.sv(501) @ 7255: uvm_test_top.env1.scb [APB_SCB_WRITE] WRITE OK: ADDR=0x00008818 IDX=4355 DATA=0xd825a40207a112bf STRB=0xff MODEL=0xd825a40207a112bf VALID_BYTES=0xff
UVM_INFO ../tb/apb_monitor.sv(134) @ 7295: uvm_test_top.env1.agt.monitor [APB_MONITOR] TRANSFER: ADDR=0x00008818 WRITE=0 WDATA=0x0000000000000000 RDATA=0xd825a40207a112bf STRB=0x00 PSLVERR=0
UVM_INFO ../tb/apb_scoreboard.sv(587) @ 7295: uvm_test_top.env1.scb [APB_SCB_READ] READ MATCH: ADDR=0x00008818 IDX=4355 EXPECTED=0xd825a40207a112bf ACTUAL=0xd825a40207a112bf VALID_BYTES=0xff
UVM_INFO ../tb/apb_monitor.sv(134) @ 7335: uvm_test_top.env1.agt.monitor [APB_MONITOR] TRANSFER: ADDR=0x00000020 WRITE=1 WDATA=0x567b49127bb76d87 RDATA=0x0000000000000000 STRB=0xff PSLVERR=0
UVM_INFO ../tb/apb_scoreboard.sv(501) @ 7335: uvm_test_top.env1.scb [APB_SCB_WRITE] WRITE OK: ADDR=0x00000020 IDX=4 DATA=0x567b49127bb76d87 STRB=0xff MODEL=0x567b49127bb76d87 VALID_BYTES=0xff
UVM_INFO ../tb/apb_monitor.sv(134) @ 7375: uvm_test_top.env1.agt.monitor [APB_MONITOR] TRANSFER: ADDR=0x00000020 WRITE=0 WDATA=0x0000000000000000 RDATA=0x567b49127bb76d87 STRB=0x00 PSLVERR=0
UVM_INFO ../tb/apb_scoreboard.sv(587) @ 7375: uvm_test_top.env1.scb [APB_SCB_READ] READ MATCH: ADDR=0x00000020 IDX=4 EXPECTED=0x567b49127bb76d87 ACTUAL=0x567b49127bb76d87 VALID_BYTES=0xff
UVM_INFO ../tb/apb_monitor.sv(134) @ 7415: uvm_test_top.env1.agt.monitor [APB_MONITOR] TRANSFER: ADDR=0x0000dca8 WRITE=1 WDATA=0xf9f0a9cac776d907 RDATA=0x0000000000000000 STRB=0xff PSLVERR=0
UVM_INFO ../tb/apb_scoreboard.sv(501) @ 7415: uvm_test_top.env1.scb [APB_SCB_WRITE] WRITE OK: ADDR=0x0000dca8 IDX=7061 DATA=0xf9f0a9cac776d907 STRB=0xff MODEL=0xf9f0a9cac776d907 VALID_BYTES=0xff
UVM_INFO ../tb/apb_monitor.sv(134) @ 7455: uvm_test_top.env1.agt.monitor [APB_MONITOR] TRANSFER: ADDR=0x0000dca8 WRITE=0 WDATA=0x0000000000000000 RDATA=0xf9f0a9cac776d907 STRB=0x00 PSLVERR=0
UVM_INFO ../tb/apb_scoreboard.sv(587) @ 7455: uvm_test_top.env1.scb [APB_SCB_READ] READ MATCH: ADDR=0x0000dca8 IDX=7061 EXPECTED=0xf9f0a9cac776d907 ACTUAL=0xf9f0a9cac776d907 VALID_BYTES=0xff
UVM_INFO ../tb/apb_monitor.sv(134) @ 7495: uvm_test_top.env1.agt.monitor [APB_MONITOR] TRANSFER: ADDR=0x0000ac90 WRITE=1 WDATA=0xcf512d1f19fa9cfc RDATA=0x0000000000000000 STRB=0xff PSLVERR=0
UVM_INFO ../tb/apb_scoreboard.sv(501) @ 7495: uvm_test_top.env1.scb [APB_SCB_WRITE] WRITE OK: ADDR=0x0000ac90 IDX=5522 DATA=0xcf512d1f19fa9cfc STRB=0xff MODEL=0xcf512d1f19fa9cfc VALID_BYTES=0xff
UVM_INFO ../tb/apb_monitor.sv(134) @ 7535: uvm_test_top.env1.agt.monitor [APB_MONITOR] TRANSFER: ADDR=0x0000ac90 WRITE=0 WDATA=0x0000000000000000 RDATA=0xcf512d1f19fa9cfc STRB=0x00 PSLVERR=0
UVM_INFO ../tb/apb_scoreboard.sv(587) @ 7535: uvm_test_top.env1.scb [APB_SCB_READ] READ MATCH: ADDR=0x0000ac90 IDX=5522 EXPECTED=0xcf512d1f19fa9cfc ACTUAL=0xcf512d1f19fa9cfc VALID_BYTES=0xff
UVM_INFO ../tb/apb_monitor.sv(134) @ 7575: uvm_test_top.env1.agt.monitor [APB_MONITOR] TRANSFER: ADDR=0x00000bd8 WRITE=1 WDATA=0x2d891933dff2813c RDATA=0x0000000000000000 STRB=0xff PSLVERR=0
UVM_INFO ../tb/apb_scoreboard.sv(501) @ 7575: uvm_test_top.env1.scb [APB_SCB_WRITE] WRITE OK: ADDR=0x00000bd8 IDX=379 DATA=0x2d891933dff2813c STRB=0xff MODEL=0x2d891933dff2813c VALID_BYTES=0xff
UVM_INFO ../tb/apb_monitor.sv(134) @ 7615: uvm_test_top.env1.agt.monitor [APB_MONITOR] TRANSFER: ADDR=0x00000bd8 WRITE=0 WDATA=0x0000000000000000 RDATA=0x2d891933dff2813c STRB=0x00 PSLVERR=0
UVM_INFO ../tb/apb_scoreboard.sv(587) @ 7615: uvm_test_top.env1.scb [APB_SCB_READ] READ MATCH: ADDR=0x00000bd8 IDX=379 EXPECTED=0x2d891933dff2813c ACTUAL=0x2d891933dff2813c VALID_BYTES=0xff
UVM_INFO ../tb/apb_monitor.sv(134) @ 7655: uvm_test_top.env1.agt.monitor [APB_MONITOR] TRANSFER: ADDR=0x0000fc60 WRITE=1 WDATA=0xef441f7fd6c5a285 RDATA=0x0000000000000000 STRB=0xff PSLVERR=0
UVM_INFO ../tb/apb_scoreboard.sv(501) @ 7655: uvm_test_top.env1.scb [APB_SCB_WRITE] WRITE OK: ADDR=0x0000fc60 IDX=8076 DATA=0xef441f7fd6c5a285 STRB=0xff MODEL=0xef441f7fd6c5a285 VALID_BYTES=0xff
UVM_INFO ../tb/apb_monitor.sv(134) @ 7695: uvm_test_top.env1.agt.monitor [APB_MONITOR] TRANSFER: ADDR=0x0000fc60 WRITE=0 WDATA=0x0000000000000000 RDATA=0xef441f7fd6c5a285 STRB=0x00 PSLVERR=0
UVM_INFO ../tb/apb_scoreboard.sv(587) @ 7695: uvm_test_top.env1.scb [APB_SCB_READ] READ MATCH: ADDR=0x0000fc60 IDX=8076 EXPECTED=0xef441f7fd6c5a285 ACTUAL=0xef441f7fd6c5a285 VALID_BYTES=0xff
UVM_INFO ../tb/apb_monitor.sv(134) @ 7735: uvm_test_top.env1.agt.monitor [APB_MONITOR] TRANSFER: ADDR=0x00007e28 WRITE=1 WDATA=0x57f6f4c588e9e4ae RDATA=0x0000000000000000 STRB=0xff PSLVERR=0
UVM_INFO ../tb/apb_scoreboard.sv(501) @ 7735: uvm_test_top.env1.scb [APB_SCB_WRITE] WRITE OK: ADDR=0x00007e28 IDX=4037 DATA=0x57f6f4c588e9e4ae STRB=0xff MODEL=0x57f6f4c588e9e4ae VALID_BYTES=0xff
UVM_INFO ../tb/apb_monitor.sv(134) @ 7775: uvm_test_top.env1.agt.monitor [APB_MONITOR] TRANSFER: ADDR=0x00007e28 WRITE=0 WDATA=0x0000000000000000 RDATA=0x57f6f4c588e9e4ae STRB=0x00 PSLVERR=0
UVM_INFO ../tb/apb_scoreboard.sv(587) @ 7775: uvm_test_top.env1.scb [APB_SCB_READ] READ MATCH: ADDR=0x00007e28 IDX=4037 EXPECTED=0x57f6f4c588e9e4ae ACTUAL=0x57f6f4c588e9e4ae VALID_BYTES=0xff
UVM_INFO ../tb/apb_monitor.sv(134) @ 7815: uvm_test_top.env1.agt.monitor [APB_MONITOR] TRANSFER: ADDR=0x00005760 WRITE=1 WDATA=0x17e6e8ff7e0954bd RDATA=0x0000000000000000 STRB=0xff PSLVERR=0
UVM_INFO ../tb/apb_scoreboard.sv(501) @ 7815: uvm_test_top.env1.scb [APB_SCB_WRITE] WRITE OK: ADDR=0x00005760 IDX=2796 DATA=0x17e6e8ff7e0954bd STRB=0xff MODEL=0x17e6e8ff7e0954bd VALID_BYTES=0xff
UVM_INFO ../tb/apb_monitor.sv(134) @ 7855: uvm_test_top.env1.agt.monitor [APB_MONITOR] TRANSFER: ADDR=0x00005760 WRITE=0 WDATA=0x0000000000000000 RDATA=0x17e6e8ff7e0954bd STRB=0x00 PSLVERR=0
UVM_INFO ../tb/apb_scoreboard.sv(587) @ 7855: uvm_test_top.env1.scb [APB_SCB_READ] READ MATCH: ADDR=0x00005760 IDX=2796 EXPECTED=0x17e6e8ff7e0954bd ACTUAL=0x17e6e8ff7e0954bd VALID_BYTES=0xff
UVM_INFO ../tb/apb_monitor.sv(134) @ 7895: uvm_test_top.env1.agt.monitor [APB_MONITOR] TRANSFER: ADDR=0x00005ec0 WRITE=1 WDATA=0x25efcbc71001a942 RDATA=0x0000000000000000 STRB=0xff PSLVERR=0
UVM_INFO ../tb/apb_scoreboard.sv(501) @ 7895: uvm_test_top.env1.scb [APB_SCB_WRITE] WRITE OK: ADDR=0x00005ec0 IDX=3032 DATA=0x25efcbc71001a942 STRB=0xff MODEL=0x25efcbc71001a942 VALID_BYTES=0xff
UVM_INFO ../tb/apb_monitor.sv(134) @ 7935: uvm_test_top.env1.agt.monitor [APB_MONITOR] TRANSFER: ADDR=0x00005ec0 WRITE=0 WDATA=0x0000000000000000 RDATA=0x25efcbc71001a942 STRB=0x00 PSLVERR=0
UVM_INFO ../tb/apb_scoreboard.sv(587) @ 7935: uvm_test_top.env1.scb [APB_SCB_READ] READ MATCH: ADDR=0x00005ec0 IDX=3032 EXPECTED=0x25efcbc71001a942 ACTUAL=0x25efcbc71001a942 VALID_BYTES=0xff
UVM_INFO ../tb/apb_monitor.sv(134) @ 7975: uvm_test_top.env1.agt.monitor [APB_MONITOR] TRANSFER: ADDR=0x00007ba0 WRITE=1 WDATA=0x1d963534d487429a RDATA=0x0000000000000000 STRB=0xff PSLVERR=0
UVM_INFO ../tb/apb_scoreboard.sv(501) @ 7975: uvm_test_top.env1.scb [APB_SCB_WRITE] WRITE OK: ADDR=0x00007ba0 IDX=3956 DATA=0x1d963534d487429a STRB=0xff MODEL=0x1d963534d487429a VALID_BYTES=0xff
UVM_INFO ../tb/apb_monitor.sv(134) @ 8015: uvm_test_top.env1.agt.monitor [APB_MONITOR] TRANSFER: ADDR=0x00007ba0 WRITE=0 WDATA=0x0000000000000000 RDATA=0x1d963534d487429a STRB=0x00 PSLVERR=0
UVM_INFO ../tb/apb_scoreboard.sv(587) @ 8015: uvm_test_top.env1.scb [APB_SCB_READ] READ MATCH: ADDR=0x00007ba0 IDX=3956 EXPECTED=0x1d963534d487429a ACTUAL=0x1d963534d487429a VALID_BYTES=0xff
UVM_INFO ../tb/apb_monitor.sv(134) @ 8055: uvm_test_top.env1.agt.monitor [APB_MONITOR] TRANSFER: ADDR=0x000081c8 WRITE=1 WDATA=0x085c89e28eed8058 RDATA=0x0000000000000000 STRB=0xff PSLVERR=0
UVM_INFO ../tb/apb_scoreboard.sv(501) @ 8055: uvm_test_top.env1.scb [APB_SCB_WRITE] WRITE OK: ADDR=0x000081c8 IDX=4153 DATA=0x085c89e28eed8058 STRB=0xff MODEL=0x085c89e28eed8058 VALID_BYTES=0xff
UVM_INFO ../tb/apb_monitor.sv(134) @ 8095: uvm_test_top.env1.agt.monitor [APB_MONITOR] TRANSFER: ADDR=0x000081c8 WRITE=0 WDATA=0x0000000000000000 RDATA=0x085c89e28eed8058 STRB=0x00 PSLVERR=0
UVM_INFO ../tb/apb_scoreboard.sv(587) @ 8095: uvm_test_top.env1.scb [APB_SCB_READ] READ MATCH: ADDR=0x000081c8 IDX=4153 EXPECTED=0x085c89e28eed8058 ACTUAL=0x085c89e28eed8058 VALID_BYTES=0xff
UVM_INFO ../tb/test.sv(1507) @ 8096: uvm_test_top [STRESS_TEST] Stress Round 1 Completed
UVM_INFO ../tb/test.sv(1251) @ 8096: uvm_test_top [STRESS_TEST] Starting Stress Round 2
UVM_INFO ../tb/test.sv(1294) @ 8096: uvm_test_top [STRESS_TEST] Running apb_successive_wr_sequence
UVM_INFO ../tb/apb_sequence.sv(256) @ 8096: uvm_test_top.env1.agt.seq1@@successive_seq_r1 [apb_successive_wr_sequence] Successive Write/Read Sequence Started
UVM_INFO ../tb/apb_monitor.sv(134) @ 8135: uvm_test_top.env1.agt.monitor [APB_MONITOR] TRANSFER: ADDR=0x00000000 WRITE=1 WDATA=0x1000000000000000 RDATA=0x0000000000000000 STRB=0xff PSLVERR=0
UVM_INFO ../tb/apb_scoreboard.sv(501) @ 8135: uvm_test_top.env1.scb [APB_SCB_WRITE] WRITE OK: ADDR=0x00000000 IDX=0 DATA=0x1000000000000000 STRB=0xff MODEL=0x1000000000000000 VALID_BYTES=0xff
UVM_INFO ../tb/apb_monitor.sv(134) @ 8175: uvm_test_top.env1.agt.monitor [APB_MONITOR] TRANSFER: ADDR=0x00000008 WRITE=1 WDATA=0x1000000000000001 RDATA=0x0000000000000000 STRB=0xff PSLVERR=0
UVM_INFO ../tb/apb_scoreboard.sv(501) @ 8175: uvm_test_top.env1.scb [APB_SCB_WRITE] WRITE OK: ADDR=0x00000008 IDX=1 DATA=0x1000000000000001 STRB=0xff MODEL=0x1000000000000001 VALID_BYTES=0xff
UVM_INFO ../tb/apb_monitor.sv(134) @ 8215: uvm_test_top.env1.agt.monitor [APB_MONITOR] TRANSFER: ADDR=0x00000010 WRITE=1 WDATA=0x1000000000000002 RDATA=0x0000000000000000 STRB=0xff PSLVERR=0
UVM_INFO ../tb/apb_scoreboard.sv(501) @ 8215: uvm_test_top.env1.scb [APB_SCB_WRITE] WRITE OK: ADDR=0x00000010 IDX=2 DATA=0x1000000000000002 STRB=0xff MODEL=0x1000000000000002 VALID_BYTES=0xff
UVM_INFO ../tb/apb_monitor.sv(134) @ 8255: uvm_test_top.env1.agt.monitor [APB_MONITOR] TRANSFER: ADDR=0x00000018 WRITE=1 WDATA=0x1000000000000003 RDATA=0x0000000000000000 STRB=0xff PSLVERR=0
UVM_INFO ../tb/apb_scoreboard.sv(501) @ 8255: uvm_test_top.env1.scb [APB_SCB_WRITE] WRITE OK: ADDR=0x00000018 IDX=3 DATA=0x1000000000000003 STRB=0xff MODEL=0x1000000000000003 VALID_BYTES=0xff
UVM_INFO ../tb/apb_monitor.sv(134) @ 8295: uvm_test_top.env1.agt.monitor [APB_MONITOR] TRANSFER: ADDR=0x00000020 WRITE=1 WDATA=0x1000000000000004 RDATA=0x0000000000000000 STRB=0xff PSLVERR=0
UVM_INFO ../tb/apb_scoreboard.sv(501) @ 8295: uvm_test_top.env1.scb [APB_SCB_WRITE] WRITE OK: ADDR=0x00000020 IDX=4 DATA=0x1000000000000004 STRB=0xff MODEL=0x1000000000000004 VALID_BYTES=0xff
UVM_INFO ../tb/apb_monitor.sv(134) @ 8335: uvm_test_top.env1.agt.monitor [APB_MONITOR] TRANSFER: ADDR=0x00000028 WRITE=1 WDATA=0x1000000000000005 RDATA=0x0000000000000000 STRB=0xff PSLVERR=0
UVM_INFO ../tb/apb_scoreboard.sv(501) @ 8335: uvm_test_top.env1.scb [APB_SCB_WRITE] WRITE OK: ADDR=0x00000028 IDX=5 DATA=0x1000000000000005 STRB=0xff MODEL=0x1000000000000005 VALID_BYTES=0xff
UVM_INFO ../tb/apb_monitor.sv(134) @ 8375: uvm_test_top.env1.agt.monitor [APB_MONITOR] TRANSFER: ADDR=0x00000030 WRITE=1 WDATA=0x1000000000000006 RDATA=0x0000000000000000 STRB=0xff PSLVERR=0
UVM_INFO ../tb/apb_scoreboard.sv(501) @ 8375: uvm_test_top.env1.scb [APB_SCB_WRITE] WRITE OK: ADDR=0x00000030 IDX=6 DATA=0x1000000000000006 STRB=0xff MODEL=0x1000000000000006 VALID_BYTES=0xff
UVM_INFO ../tb/apb_monitor.sv(134) @ 8415: uvm_test_top.env1.agt.monitor [APB_MONITOR] TRANSFER: ADDR=0x00000038 WRITE=1 WDATA=0x1000000000000007 RDATA=0x0000000000000000 STRB=0xff PSLVERR=0
UVM_INFO ../tb/apb_scoreboard.sv(501) @ 8415: uvm_test_top.env1.scb [APB_SCB_WRITE] WRITE OK: ADDR=0x00000038 IDX=7 DATA=0x1000000000000007 STRB=0xff MODEL=0x1000000000000007 VALID_BYTES=0xff
UVM_INFO ../tb/apb_monitor.sv(134) @ 8455: uvm_test_top.env1.agt.monitor [APB_MONITOR] TRANSFER: ADDR=0x00000040 WRITE=1 WDATA=0x1000000000000008 RDATA=0x0000000000000000 STRB=0xff PSLVERR=0
UVM_INFO ../tb/apb_scoreboard.sv(501) @ 8455: uvm_test_top.env1.scb [APB_SCB_WRITE] WRITE OK: ADDR=0x00000040 IDX=8 DATA=0x1000000000000008 STRB=0xff MODEL=0x1000000000000008 VALID_BYTES=0xff
UVM_INFO ../tb/apb_monitor.sv(134) @ 8495: uvm_test_top.env1.agt.monitor [APB_MONITOR] TRANSFER: ADDR=0x00000048 WRITE=1 WDATA=0x1000000000000009 RDATA=0x0000000000000000 STRB=0xff PSLVERR=0
UVM_INFO ../tb/apb_scoreboard.sv(501) @ 8495: uvm_test_top.env1.scb [APB_SCB_WRITE] WRITE OK: ADDR=0x00000048 IDX=9 DATA=0x1000000000000009 STRB=0xff MODEL=0x1000000000000009 VALID_BYTES=0xff
UVM_INFO ../tb/apb_monitor.sv(134) @ 8535: uvm_test_top.env1.agt.monitor [APB_MONITOR] TRANSFER: ADDR=0x00000050 WRITE=1 WDATA=0x100000000000000a RDATA=0x0000000000000000 STRB=0xff PSLVERR=0
UVM_INFO ../tb/apb_scoreboard.sv(501) @ 8535: uvm_test_top.env1.scb [APB_SCB_WRITE] WRITE OK: ADDR=0x00000050 IDX=10 DATA=0x100000000000000a STRB=0xff MODEL=0x100000000000000a VALID_BYTES=0xff
UVM_INFO ../tb/apb_monitor.sv(134) @ 8575: uvm_test_top.env1.agt.monitor [APB_MONITOR] TRANSFER: ADDR=0x00000058 WRITE=1 WDATA=0x100000000000000b RDATA=0x0000000000000000 STRB=0xff PSLVERR=0
UVM_INFO ../tb/apb_scoreboard.sv(501) @ 8575: uvm_test_top.env1.scb [APB_SCB_WRITE] WRITE OK: ADDR=0x00000058 IDX=11 DATA=0x100000000000000b STRB=0xff MODEL=0x100000000000000b VALID_BYTES=0xff
UVM_INFO ../tb/apb_monitor.sv(134) @ 8615: uvm_test_top.env1.agt.monitor [APB_MONITOR] TRANSFER: ADDR=0x00000060 WRITE=1 WDATA=0x100000000000000c RDATA=0x0000000000000000 STRB=0xff PSLVERR=0
UVM_INFO ../tb/apb_scoreboard.sv(501) @ 8615: uvm_test_top.env1.scb [APB_SCB_WRITE] WRITE OK: ADDR=0x00000060 IDX=12 DATA=0x100000000000000c STRB=0xff MODEL=0x100000000000000c VALID_BYTES=0xff
UVM_INFO ../tb/apb_monitor.sv(134) @ 8655: uvm_test_top.env1.agt.monitor [APB_MONITOR] TRANSFER: ADDR=0x00000068 WRITE=1 WDATA=0x100000000000000d RDATA=0x0000000000000000 STRB=0xff PSLVERR=0
UVM_INFO ../tb/apb_scoreboard.sv(501) @ 8655: uvm_test_top.env1.scb [APB_SCB_WRITE] WRITE OK: ADDR=0x00000068 IDX=13 DATA=0x100000000000000d STRB=0xff MODEL=0x100000000000000d VALID_BYTES=0xff
UVM_INFO ../tb/apb_monitor.sv(134) @ 8695: uvm_test_top.env1.agt.monitor [APB_MONITOR] TRANSFER: ADDR=0x00000070 WRITE=1 WDATA=0x100000000000000e RDATA=0x0000000000000000 STRB=0xff PSLVERR=0
UVM_INFO ../tb/apb_scoreboard.sv(501) @ 8695: uvm_test_top.env1.scb [APB_SCB_WRITE] WRITE OK: ADDR=0x00000070 IDX=14 DATA=0x100000000000000e STRB=0xff MODEL=0x100000000000000e VALID_BYTES=0xff
UVM_INFO ../tb/apb_monitor.sv(134) @ 8735: uvm_test_top.env1.agt.monitor [APB_MONITOR] TRANSFER: ADDR=0x00000078 WRITE=1 WDATA=0x100000000000000f RDATA=0x0000000000000000 STRB=0xff PSLVERR=0
UVM_INFO ../tb/apb_scoreboard.sv(501) @ 8735: uvm_test_top.env1.scb [APB_SCB_WRITE] WRITE OK: ADDR=0x00000078 IDX=15 DATA=0x100000000000000f STRB=0xff MODEL=0x100000000000000f VALID_BYTES=0xff
UVM_INFO ../tb/apb_monitor.sv(134) @ 8775: uvm_test_top.env1.agt.monitor [APB_MONITOR] TRANSFER: ADDR=0x00000080 WRITE=1 WDATA=0x1000000000000010 RDATA=0x0000000000000000 STRB=0xff PSLVERR=0
UVM_INFO ../tb/apb_scoreboard.sv(501) @ 8775: uvm_test_top.env1.scb [APB_SCB_WRITE] WRITE OK: ADDR=0x00000080 IDX=16 DATA=0x1000000000000010 STRB=0xff MODEL=0x1000000000000010 VALID_BYTES=0xff
UVM_INFO ../tb/apb_monitor.sv(134) @ 8815: uvm_test_top.env1.agt.monitor [APB_MONITOR] TRANSFER: ADDR=0x00000088 WRITE=1 WDATA=0x1000000000000011 RDATA=0x0000000000000000 STRB=0xff PSLVERR=0
UVM_INFO ../tb/apb_scoreboard.sv(501) @ 8815: uvm_test_top.env1.scb [APB_SCB_WRITE] WRITE OK: ADDR=0x00000088 IDX=17 DATA=0x1000000000000011 STRB=0xff MODEL=0x1000000000000011 VALID_BYTES=0xff
UVM_INFO ../tb/apb_monitor.sv(134) @ 8855: uvm_test_top.env1.agt.monitor [APB_MONITOR] TRANSFER: ADDR=0x00000090 WRITE=1 WDATA=0x1000000000000012 RDATA=0x0000000000000000 STRB=0xff PSLVERR=0
UVM_INFO ../tb/apb_scoreboard.sv(501) @ 8855: uvm_test_top.env1.scb [APB_SCB_WRITE] WRITE OK: ADDR=0x00000090 IDX=18 DATA=0x1000000000000012 STRB=0xff MODEL=0x1000000000000012 VALID_BYTES=0xff
UVM_INFO ../tb/apb_monitor.sv(134) @ 8895: uvm_test_top.env1.agt.monitor [APB_MONITOR] TRANSFER: ADDR=0x00000098 WRITE=1 WDATA=0x1000000000000013 RDATA=0x0000000000000000 STRB=0xff PSLVERR=0
UVM_INFO ../tb/apb_scoreboard.sv(501) @ 8895: uvm_test_top.env1.scb [APB_SCB_WRITE] WRITE OK: ADDR=0x00000098 IDX=19 DATA=0x1000000000000013 STRB=0xff MODEL=0x1000000000000013 VALID_BYTES=0xff
UVM_INFO ../tb/apb_monitor.sv(134) @ 8935: uvm_test_top.env1.agt.monitor [APB_MONITOR] TRANSFER: ADDR=0x000000a0 WRITE=1 WDATA=0x1000000000000014 RDATA=0x0000000000000000 STRB=0xff PSLVERR=0
UVM_INFO ../tb/apb_scoreboard.sv(501) @ 8935: uvm_test_top.env1.scb [APB_SCB_WRITE] WRITE OK: ADDR=0x000000a0 IDX=20 DATA=0x1000000000000014 STRB=0xff MODEL=0x1000000000000014 VALID_BYTES=0xff
UVM_INFO ../tb/apb_monitor.sv(134) @ 8975: uvm_test_top.env1.agt.monitor [APB_MONITOR] TRANSFER: ADDR=0x000000a8 WRITE=1 WDATA=0x1000000000000015 RDATA=0x0000000000000000 STRB=0xff PSLVERR=0
UVM_INFO ../tb/apb_scoreboard.sv(501) @ 8975: uvm_test_top.env1.scb [APB_SCB_WRITE] WRITE OK: ADDR=0x000000a8 IDX=21 DATA=0x1000000000000015 STRB=0xff MODEL=0x1000000000000015 VALID_BYTES=0xff
UVM_INFO ../tb/apb_monitor.sv(134) @ 9015: uvm_test_top.env1.agt.monitor [APB_MONITOR] TRANSFER: ADDR=0x000000b0 WRITE=1 WDATA=0x1000000000000016 RDATA=0x0000000000000000 STRB=0xff PSLVERR=0
UVM_INFO ../tb/apb_scoreboard.sv(501) @ 9015: uvm_test_top.env1.scb [APB_SCB_WRITE] WRITE OK: ADDR=0x000000b0 IDX=22 DATA=0x1000000000000016 STRB=0xff MODEL=0x1000000000000016 VALID_BYTES=0xff
UVM_INFO ../tb/apb_monitor.sv(134) @ 9055: uvm_test_top.env1.agt.monitor [APB_MONITOR] TRANSFER: ADDR=0x000000b8 WRITE=1 WDATA=0x1000000000000017 RDATA=0x0000000000000000 STRB=0xff PSLVERR=0
UVM_INFO ../tb/apb_scoreboard.sv(501) @ 9055: uvm_test_top.env1.scb [APB_SCB_WRITE] WRITE OK: ADDR=0x000000b8 IDX=23 DATA=0x1000000000000017 STRB=0xff MODEL=0x1000000000000017 VALID_BYTES=0xff
UVM_INFO ../tb/apb_monitor.sv(134) @ 9095: uvm_test_top.env1.agt.monitor [APB_MONITOR] TRANSFER: ADDR=0x000000c0 WRITE=1 WDATA=0x1000000000000018 RDATA=0x0000000000000000 STRB=0xff PSLVERR=0
UVM_INFO ../tb/apb_scoreboard.sv(501) @ 9095: uvm_test_top.env1.scb [APB_SCB_WRITE] WRITE OK: ADDR=0x000000c0 IDX=24 DATA=0x1000000000000018 STRB=0xff MODEL=0x1000000000000018 VALID_BYTES=0xff
UVM_INFO ../tb/apb_monitor.sv(134) @ 9135: uvm_test_top.env1.agt.monitor [APB_MONITOR] TRANSFER: ADDR=0x000000c8 WRITE=1 WDATA=0x1000000000000019 RDATA=0x0000000000000000 STRB=0xff PSLVERR=0
UVM_INFO ../tb/apb_scoreboard.sv(501) @ 9135: uvm_test_top.env1.scb [APB_SCB_WRITE] WRITE OK: ADDR=0x000000c8 IDX=25 DATA=0x1000000000000019 STRB=0xff MODEL=0x1000000000000019 VALID_BYTES=0xff
UVM_INFO ../tb/apb_monitor.sv(134) @ 9175: uvm_test_top.env1.agt.monitor [APB_MONITOR] TRANSFER: ADDR=0x000000d0 WRITE=1 WDATA=0x100000000000001a RDATA=0x0000000000000000 STRB=0xff PSLVERR=0
UVM_INFO ../tb/apb_scoreboard.sv(501) @ 9175: uvm_test_top.env1.scb [APB_SCB_WRITE] WRITE OK: ADDR=0x000000d0 IDX=26 DATA=0x100000000000001a STRB=0xff MODEL=0x100000000000001a VALID_BYTES=0xff
UVM_INFO ../tb/apb_monitor.sv(134) @ 9215: uvm_test_top.env1.agt.monitor [APB_MONITOR] TRANSFER: ADDR=0x000000d8 WRITE=1 WDATA=0x100000000000001b RDATA=0x0000000000000000 STRB=0xff PSLVERR=0
UVM_INFO ../tb/apb_scoreboard.sv(501) @ 9215: uvm_test_top.env1.scb [APB_SCB_WRITE] WRITE OK: ADDR=0x000000d8 IDX=27 DATA=0x100000000000001b STRB=0xff MODEL=0x100000000000001b VALID_BYTES=0xff
UVM_INFO ../tb/apb_monitor.sv(134) @ 9255: uvm_test_top.env1.agt.monitor [APB_MONITOR] TRANSFER: ADDR=0x000000e0 WRITE=1 WDATA=0x100000000000001c RDATA=0x0000000000000000 STRB=0xff PSLVERR=0
UVM_INFO ../tb/apb_scoreboard.sv(501) @ 9255: uvm_test_top.env1.scb [APB_SCB_WRITE] WRITE OK: ADDR=0x000000e0 IDX=28 DATA=0x100000000000001c STRB=0xff MODEL=0x100000000000001c VALID_BYTES=0xff
UVM_INFO ../tb/apb_monitor.sv(134) @ 9295: uvm_test_top.env1.agt.monitor [APB_MONITOR] TRANSFER: ADDR=0x000000e8 WRITE=1 WDATA=0x100000000000001d RDATA=0x0000000000000000 STRB=0xff PSLVERR=0
UVM_INFO ../tb/apb_scoreboard.sv(501) @ 9295: uvm_test_top.env1.scb [APB_SCB_WRITE] WRITE OK: ADDR=0x000000e8 IDX=29 DATA=0x100000000000001d STRB=0xff MODEL=0x100000000000001d VALID_BYTES=0xff
UVM_INFO ../tb/apb_monitor.sv(134) @ 9335: uvm_test_top.env1.agt.monitor [APB_MONITOR] TRANSFER: ADDR=0x000000f0 WRITE=1 WDATA=0x100000000000001e RDATA=0x0000000000000000 STRB=0xff PSLVERR=0
UVM_INFO ../tb/apb_scoreboard.sv(501) @ 9335: uvm_test_top.env1.scb [APB_SCB_WRITE] WRITE OK: ADDR=0x000000f0 IDX=30 DATA=0x100000000000001e STRB=0xff MODEL=0x100000000000001e VALID_BYTES=0xff
UVM_INFO ../tb/apb_monitor.sv(134) @ 9375: uvm_test_top.env1.agt.monitor [APB_MONITOR] TRANSFER: ADDR=0x00000000 WRITE=0 WDATA=0x0000000000000000 RDATA=0x1000000000000000 STRB=0x00 PSLVERR=0
UVM_INFO ../tb/apb_scoreboard.sv(587) @ 9375: uvm_test_top.env1.scb [APB_SCB_READ] READ MATCH: ADDR=0x00000000 IDX=0 EXPECTED=0x1000000000000000 ACTUAL=0x1000000000000000 VALID_BYTES=0xff
UVM_INFO ../tb/apb_monitor.sv(134) @ 9415: uvm_test_top.env1.agt.monitor [APB_MONITOR] TRANSFER: ADDR=0x00000008 WRITE=0 WDATA=0x0000000000000000 RDATA=0x1000000000000001 STRB=0x00 PSLVERR=0
UVM_INFO ../tb/apb_scoreboard.sv(587) @ 9415: uvm_test_top.env1.scb [APB_SCB_READ] READ MATCH: ADDR=0x00000008 IDX=1 EXPECTED=0x1000000000000001 ACTUAL=0x1000000000000001 VALID_BYTES=0xff
UVM_INFO ../tb/apb_monitor.sv(134) @ 9455: uvm_test_top.env1.agt.monitor [APB_MONITOR] TRANSFER: ADDR=0x00000010 WRITE=0 WDATA=0x0000000000000000 RDATA=0x1000000000000002 STRB=0x00 PSLVERR=0
UVM_INFO ../tb/apb_scoreboard.sv(587) @ 9455: uvm_test_top.env1.scb [APB_SCB_READ] READ MATCH: ADDR=0x00000010 IDX=2 EXPECTED=0x1000000000000002 ACTUAL=0x1000000000000002 VALID_BYTES=0xff
UVM_INFO ../tb/apb_monitor.sv(134) @ 9495: uvm_test_top.env1.agt.monitor [APB_MONITOR] TRANSFER: ADDR=0x00000018 WRITE=0 WDATA=0x0000000000000000 RDATA=0x1000000000000003 STRB=0x00 PSLVERR=0
UVM_INFO ../tb/apb_scoreboard.sv(587) @ 9495: uvm_test_top.env1.scb [APB_SCB_READ] READ MATCH: ADDR=0x00000018 IDX=3 EXPECTED=0x1000000000000003 ACTUAL=0x1000000000000003 VALID_BYTES=0xff
UVM_INFO ../tb/apb_monitor.sv(134) @ 9535: uvm_test_top.env1.agt.monitor [APB_MONITOR] TRANSFER: ADDR=0x00000020 WRITE=0 WDATA=0x0000000000000000 RDATA=0x1000000000000004 STRB=0x00 PSLVERR=0
UVM_INFO ../tb/apb_scoreboard.sv(587) @ 9535: uvm_test_top.env1.scb [APB_SCB_READ] READ MATCH: ADDR=0x00000020 IDX=4 EXPECTED=0x1000000000000004 ACTUAL=0x1000000000000004 VALID_BYTES=0xff
UVM_INFO ../tb/apb_monitor.sv(134) @ 9575: uvm_test_top.env1.agt.monitor [APB_MONITOR] TRANSFER: ADDR=0x00000028 WRITE=0 WDATA=0x0000000000000000 RDATA=0x1000000000000005 STRB=0x00 PSLVERR=0
UVM_INFO ../tb/apb_scoreboard.sv(587) @ 9575: uvm_test_top.env1.scb [APB_SCB_READ] READ MATCH: ADDR=0x00000028 IDX=5 EXPECTED=0x1000000000000005 ACTUAL=0x1000000000000005 VALID_BYTES=0xff
UVM_INFO ../tb/apb_monitor.sv(134) @ 9615: uvm_test_top.env1.agt.monitor [APB_MONITOR] TRANSFER: ADDR=0x00000030 WRITE=0 WDATA=0x0000000000000000 RDATA=0x1000000000000006 STRB=0x00 PSLVERR=0
UVM_INFO ../tb/apb_scoreboard.sv(587) @ 9615: uvm_test_top.env1.scb [APB_SCB_READ] READ MATCH: ADDR=0x00000030 IDX=6 EXPECTED=0x1000000000000006 ACTUAL=0x1000000000000006 VALID_BYTES=0xff
UVM_INFO ../tb/apb_monitor.sv(134) @ 9655: uvm_test_top.env1.agt.monitor [APB_MONITOR] TRANSFER: ADDR=0x00000038 WRITE=0 WDATA=0x0000000000000000 RDATA=0x1000000000000007 STRB=0x00 PSLVERR=0
UVM_INFO ../tb/apb_scoreboard.sv(587) @ 9655: uvm_test_top.env1.scb [APB_SCB_READ] READ MATCH: ADDR=0x00000038 IDX=7 EXPECTED=0x1000000000000007 ACTUAL=0x1000000000000007 VALID_BYTES=0xff
UVM_INFO ../tb/apb_monitor.sv(134) @ 9695: uvm_test_top.env1.agt.monitor [APB_MONITOR] TRANSFER: ADDR=0x00000040 WRITE=0 WDATA=0x0000000000000000 RDATA=0x1000000000000008 STRB=0x00 PSLVERR=0
UVM_INFO ../tb/apb_scoreboard.sv(587) @ 9695: uvm_test_top.env1.scb [APB_SCB_READ] READ MATCH: ADDR=0x00000040 IDX=8 EXPECTED=0x1000000000000008 ACTUAL=0x1000000000000008 VALID_BYTES=0xff
UVM_INFO ../tb/apb_monitor.sv(134) @ 9735: uvm_test_top.env1.agt.monitor [APB_MONITOR] TRANSFER: ADDR=0x00000048 WRITE=0 WDATA=0x0000000000000000 RDATA=0x1000000000000009 STRB=0x00 PSLVERR=0
UVM_INFO ../tb/apb_scoreboard.sv(587) @ 9735: uvm_test_top.env1.scb [APB_SCB_READ] READ MATCH: ADDR=0x00000048 IDX=9 EXPECTED=0x1000000000000009 ACTUAL=0x1000000000000009 VALID_BYTES=0xff
UVM_INFO ../tb/apb_monitor.sv(134) @ 9775: uvm_test_top.env1.agt.monitor [APB_MONITOR] TRANSFER: ADDR=0x00000050 WRITE=0 WDATA=0x0000000000000000 RDATA=0x100000000000000a STRB=0x00 PSLVERR=0
UVM_INFO ../tb/apb_scoreboard.sv(587) @ 9775: uvm_test_top.env1.scb [APB_SCB_READ] READ MATCH: ADDR=0x00000050 IDX=10 EXPECTED=0x100000000000000a ACTUAL=0x100000000000000a VALID_BYTES=0xff
UVM_INFO ../tb/apb_monitor.sv(134) @ 9815: uvm_test_top.env1.agt.monitor [APB_MONITOR] TRANSFER: ADDR=0x00000058 WRITE=0 WDATA=0x0000000000000000 RDATA=0x100000000000000b STRB=0x00 PSLVERR=0
UVM_INFO ../tb/apb_scoreboard.sv(587) @ 9815: uvm_test_top.env1.scb [APB_SCB_READ] READ MATCH: ADDR=0x00000058 IDX=11 EXPECTED=0x100000000000000b ACTUAL=0x100000000000000b VALID_BYTES=0xff
UVM_INFO ../tb/apb_monitor.sv(134) @ 9855: uvm_test_top.env1.agt.monitor [APB_MONITOR] TRANSFER: ADDR=0x00000060 WRITE=0 WDATA=0x0000000000000000 RDATA=0x100000000000000c STRB=0x00 PSLVERR=0
UVM_INFO ../tb/apb_scoreboard.sv(587) @ 9855: uvm_test_top.env1.scb [APB_SCB_READ] READ MATCH: ADDR=0x00000060 IDX=12 EXPECTED=0x100000000000000c ACTUAL=0x100000000000000c VALID_BYTES=0xff
UVM_INFO ../tb/apb_monitor.sv(134) @ 9895: uvm_test_top.env1.agt.monitor [APB_MONITOR] TRANSFER: ADDR=0x00000068 WRITE=0 WDATA=0x0000000000000000 RDATA=0x100000000000000d STRB=0x00 PSLVERR=0
UVM_INFO ../tb/apb_scoreboard.sv(587) @ 9895: uvm_test_top.env1.scb [APB_SCB_READ] READ MATCH: ADDR=0x00000068 IDX=13 EXPECTED=0x100000000000000d ACTUAL=0x100000000000000d VALID_BYTES=0xff
UVM_INFO ../tb/apb_monitor.sv(134) @ 9935: uvm_test_top.env1.agt.monitor [APB_MONITOR] TRANSFER: ADDR=0x00000070 WRITE=0 WDATA=0x0000000000000000 RDATA=0x100000000000000e STRB=0x00 PSLVERR=0
UVM_INFO ../tb/apb_scoreboard.sv(587) @ 9935: uvm_test_top.env1.scb [APB_SCB_READ] READ MATCH: ADDR=0x00000070 IDX=14 EXPECTED=0x100000000000000e ACTUAL=0x100000000000000e VALID_BYTES=0xff
UVM_INFO ../tb/apb_monitor.sv(134) @ 9975: uvm_test_top.env1.agt.monitor [APB_MONITOR] TRANSFER: ADDR=0x00000078 WRITE=0 WDATA=0x0000000000000000 RDATA=0x100000000000000f STRB=0x00 PSLVERR=0
UVM_INFO ../tb/apb_scoreboard.sv(587) @ 9975: uvm_test_top.env1.scb [APB_SCB_READ] READ MATCH: ADDR=0x00000078 IDX=15 EXPECTED=0x100000000000000f ACTUAL=0x100000000000000f VALID_BYTES=0xff
UVM_INFO ../tb/apb_monitor.sv(134) @ 10015: uvm_test_top.env1.agt.monitor [APB_MONITOR] TRANSFER: ADDR=0x00000080 WRITE=0 WDATA=0x0000000000000000 RDATA=0x1000000000000010 STRB=0x00 PSLVERR=0
UVM_INFO ../tb/apb_scoreboard.sv(587) @ 10015: uvm_test_top.env1.scb [APB_SCB_READ] READ MATCH: ADDR=0x00000080 IDX=16 EXPECTED=0x1000000000000010 ACTUAL=0x1000000000000010 VALID_BYTES=0xff
UVM_INFO ../tb/apb_monitor.sv(134) @ 10055: uvm_test_top.env1.agt.monitor [APB_MONITOR] TRANSFER: ADDR=0x00000088 WRITE=0 WDATA=0x0000000000000000 RDATA=0x1000000000000011 STRB=0x00 PSLVERR=0
UVM_INFO ../tb/apb_scoreboard.sv(587) @ 10055: uvm_test_top.env1.scb [APB_SCB_READ] READ MATCH: ADDR=0x00000088 IDX=17 EXPECTED=0x1000000000000011 ACTUAL=0x1000000000000011 VALID_BYTES=0xff
UVM_INFO ../tb/apb_monitor.sv(134) @ 10095: uvm_test_top.env1.agt.monitor [APB_MONITOR] TRANSFER: ADDR=0x00000090 WRITE=0 WDATA=0x0000000000000000 RDATA=0x1000000000000012 STRB=0x00 PSLVERR=0
UVM_INFO ../tb/apb_scoreboard.sv(587) @ 10095: uvm_test_top.env1.scb [APB_SCB_READ] READ MATCH: ADDR=0x00000090 IDX=18 EXPECTED=0x1000000000000012 ACTUAL=0x1000000000000012 VALID_BYTES=0xff
UVM_INFO ../tb/apb_monitor.sv(134) @ 10135: uvm_test_top.env1.agt.monitor [APB_MONITOR] TRANSFER: ADDR=0x00000098 WRITE=0 WDATA=0x0000000000000000 RDATA=0x1000000000000013 STRB=0x00 PSLVERR=0
UVM_INFO ../tb/apb_scoreboard.sv(587) @ 10135: uvm_test_top.env1.scb [APB_SCB_READ] READ MATCH: ADDR=0x00000098 IDX=19 EXPECTED=0x1000000000000013 ACTUAL=0x1000000000000013 VALID_BYTES=0xff
UVM_INFO ../tb/apb_monitor.sv(134) @ 10175: uvm_test_top.env1.agt.monitor [APB_MONITOR] TRANSFER: ADDR=0x000000a0 WRITE=0 WDATA=0x0000000000000000 RDATA=0x1000000000000014 STRB=0x00 PSLVERR=0
UVM_INFO ../tb/apb_scoreboard.sv(587) @ 10175: uvm_test_top.env1.scb [APB_SCB_READ] READ MATCH: ADDR=0x000000a0 IDX=20 EXPECTED=0x1000000000000014 ACTUAL=0x1000000000000014 VALID_BYTES=0xff
UVM_INFO ../tb/apb_monitor.sv(134) @ 10215: uvm_test_top.env1.agt.monitor [APB_MONITOR] TRANSFER: ADDR=0x000000a8 WRITE=0 WDATA=0x0000000000000000 RDATA=0x1000000000000015 STRB=0x00 PSLVERR=0
UVM_INFO ../tb/apb_scoreboard.sv(587) @ 10215: uvm_test_top.env1.scb [APB_SCB_READ] READ MATCH: ADDR=0x000000a8 IDX=21 EXPECTED=0x1000000000000015 ACTUAL=0x1000000000000015 VALID_BYTES=0xff
UVM_INFO ../tb/apb_monitor.sv(134) @ 10255: uvm_test_top.env1.agt.monitor [APB_MONITOR] TRANSFER: ADDR=0x000000b0 WRITE=0 WDATA=0x0000000000000000 RDATA=0x1000000000000016 STRB=0x00 PSLVERR=0
UVM_INFO ../tb/apb_scoreboard.sv(587) @ 10255: uvm_test_top.env1.scb [APB_SCB_READ] READ MATCH: ADDR=0x000000b0 IDX=22 EXPECTED=0x1000000000000016 ACTUAL=0x1000000000000016 VALID_BYTES=0xff
UVM_INFO ../tb/apb_monitor.sv(134) @ 10295: uvm_test_top.env1.agt.monitor [APB_MONITOR] TRANSFER: ADDR=0x000000b8 WRITE=0 WDATA=0x0000000000000000 RDATA=0x1000000000000017 STRB=0x00 PSLVERR=0
UVM_INFO ../tb/apb_scoreboard.sv(587) @ 10295: uvm_test_top.env1.scb [APB_SCB_READ] READ MATCH: ADDR=0x000000b8 IDX=23 EXPECTED=0x1000000000000017 ACTUAL=0x1000000000000017 VALID_BYTES=0xff
UVM_INFO ../tb/apb_monitor.sv(134) @ 10335: uvm_test_top.env1.agt.monitor [APB_MONITOR] TRANSFER: ADDR=0x000000c0 WRITE=0 WDATA=0x0000000000000000 RDATA=0x1000000000000018 STRB=0x00 PSLVERR=0
UVM_INFO ../tb/apb_scoreboard.sv(587) @ 10335: uvm_test_top.env1.scb [APB_SCB_READ] READ MATCH: ADDR=0x000000c0 IDX=24 EXPECTED=0x1000000000000018 ACTUAL=0x1000000000000018 VALID_BYTES=0xff
UVM_INFO ../tb/apb_monitor.sv(134) @ 10375: uvm_test_top.env1.agt.monitor [APB_MONITOR] TRANSFER: ADDR=0x000000c8 WRITE=0 WDATA=0x0000000000000000 RDATA=0x1000000000000019 STRB=0x00 PSLVERR=0
UVM_INFO ../tb/apb_scoreboard.sv(587) @ 10375: uvm_test_top.env1.scb [APB_SCB_READ] READ MATCH: ADDR=0x000000c8 IDX=25 EXPECTED=0x1000000000000019 ACTUAL=0x1000000000000019 VALID_BYTES=0xff
UVM_INFO ../tb/apb_monitor.sv(134) @ 10415: uvm_test_top.env1.agt.monitor [APB_MONITOR] TRANSFER: ADDR=0x000000d0 WRITE=0 WDATA=0x0000000000000000 RDATA=0x100000000000001a STRB=0x00 PSLVERR=0
UVM_INFO ../tb/apb_scoreboard.sv(587) @ 10415: uvm_test_top.env1.scb [APB_SCB_READ] READ MATCH: ADDR=0x000000d0 IDX=26 EXPECTED=0x100000000000001a ACTUAL=0x100000000000001a VALID_BYTES=0xff
UVM_INFO ../tb/apb_monitor.sv(134) @ 10455: uvm_test_top.env1.agt.monitor [APB_MONITOR] TRANSFER: ADDR=0x000000d8 WRITE=0 WDATA=0x0000000000000000 RDATA=0x100000000000001b STRB=0x00 PSLVERR=0
UVM_INFO ../tb/apb_scoreboard.sv(587) @ 10455: uvm_test_top.env1.scb [APB_SCB_READ] READ MATCH: ADDR=0x000000d8 IDX=27 EXPECTED=0x100000000000001b ACTUAL=0x100000000000001b VALID_BYTES=0xff
UVM_INFO ../tb/apb_monitor.sv(134) @ 10495: uvm_test_top.env1.agt.monitor [APB_MONITOR] TRANSFER: ADDR=0x000000e0 WRITE=0 WDATA=0x0000000000000000 RDATA=0x100000000000001c STRB=0x00 PSLVERR=0
UVM_INFO ../tb/apb_scoreboard.sv(587) @ 10495: uvm_test_top.env1.scb [APB_SCB_READ] READ MATCH: ADDR=0x000000e0 IDX=28 EXPECTED=0x100000000000001c ACTUAL=0x100000000000001c VALID_BYTES=0xff
UVM_INFO ../tb/apb_monitor.sv(134) @ 10535: uvm_test_top.env1.agt.monitor [APB_MONITOR] TRANSFER: ADDR=0x000000e8 WRITE=0 WDATA=0x0000000000000000 RDATA=0x100000000000001d STRB=0x00 PSLVERR=0
UVM_INFO ../tb/apb_scoreboard.sv(587) @ 10535: uvm_test_top.env1.scb [APB_SCB_READ] READ MATCH: ADDR=0x000000e8 IDX=29 EXPECTED=0x100000000000001d ACTUAL=0x100000000000001d VALID_BYTES=0xff
UVM_INFO ../tb/apb_monitor.sv(134) @ 10575: uvm_test_top.env1.agt.monitor [APB_MONITOR] TRANSFER: ADDR=0x000000f0 WRITE=0 WDATA=0x0000000000000000 RDATA=0x100000000000001e STRB=0x00 PSLVERR=0
UVM_INFO ../tb/apb_scoreboard.sv(587) @ 10575: uvm_test_top.env1.scb [APB_SCB_READ] READ MATCH: ADDR=0x000000f0 IDX=30 EXPECTED=0x100000000000001e ACTUAL=0x100000000000001e VALID_BYTES=0xff
UVM_INFO ../tb/apb_sequence.sv(314) @ 10576: uvm_test_top.env1.agt.seq1@@successive_seq_r1 [apb_successive_wr_sequence] Successive Write/Read Sequence Finished
UVM_INFO ../tb/test.sv(1454) @ 10576: uvm_test_top [STRESS_TEST] Running apb_addr_misaligned_sequence
UVM_INFO ../tb/apb_sequence.sv(695) @ 10576: uvm_test_top.env1.agt.seq1@@misaligned_seq_r1 [MISALIGNED_SEQ] APB Misaligned Address Sequence Started
UVM_INFO ../tb/apb_monitor.sv(134) @ 10615: uvm_test_top.env1.agt.monitor [APB_MONITOR] TRANSFER: ADDR=0x00000101 WRITE=1 WDATA=0xa100000000000000 RDATA=0x0000000000000000 STRB=0xff PSLVERR=1
UVM_INFO ../tb/apb_monitor.sv(134) @ 10655: uvm_test_top.env1.agt.monitor [APB_MONITOR] TRANSFER: ADDR=0x00000101 WRITE=0 WDATA=0x0000000000000000 RDATA=0xa000000000000009 STRB=0x00 PSLVERR=1
UVM_INFO ../tb/apb_monitor.sv(134) @ 10695: uvm_test_top.env1.agt.monitor [APB_MONITOR] TRANSFER: ADDR=0x00000102 WRITE=1 WDATA=0xa100000000000001 RDATA=0x0000000000000000 STRB=0xff PSLVERR=1
UVM_INFO ../tb/apb_monitor.sv(134) @ 10735: uvm_test_top.env1.agt.monitor [APB_MONITOR] TRANSFER: ADDR=0x00000102 WRITE=0 WDATA=0x0000000000000000 RDATA=0xa000000000000009 STRB=0x00 PSLVERR=1
UVM_INFO ../tb/apb_monitor.sv(134) @ 10775: uvm_test_top.env1.agt.monitor [APB_MONITOR] TRANSFER: ADDR=0x00000103 WRITE=1 WDATA=0xa100000000000002 RDATA=0x0000000000000000 STRB=0xff PSLVERR=1
UVM_INFO ../tb/apb_monitor.sv(134) @ 10815: uvm_test_top.env1.agt.monitor [APB_MONITOR] TRANSFER: ADDR=0x00000103 WRITE=0 WDATA=0x0000000000000000 RDATA=0xa000000000000009 STRB=0x00 PSLVERR=1
UVM_INFO ../tb/apb_monitor.sv(134) @ 10855: uvm_test_top.env1.agt.monitor [APB_MONITOR] TRANSFER: ADDR=0x00000104 WRITE=1 WDATA=0xa100000000000003 RDATA=0x0000000000000000 STRB=0xff PSLVERR=1
UVM_INFO ../tb/apb_monitor.sv(134) @ 10895: uvm_test_top.env1.agt.monitor [APB_MONITOR] TRANSFER: ADDR=0x00000104 WRITE=0 WDATA=0x0000000000000000 RDATA=0xa000000000000009 STRB=0x00 PSLVERR=1
UVM_INFO ../tb/apb_monitor.sv(134) @ 10935: uvm_test_top.env1.agt.monitor [APB_MONITOR] TRANSFER: ADDR=0x00000105 WRITE=1 WDATA=0xa100000000000004 RDATA=0x0000000000000000 STRB=0xff PSLVERR=1
